 8  Data: 0x00 0x00 0x00 0x00 0x00 0x10 0x00 0x00
Standard ID: 0x0D3       DLC: 8  Data: 0x2B 0xBC 0x00 0x00 0x00 0x10 0x00 0x00
Standard ID: 0x0F1       DLC: 6  Data: 0x00 0x00 0x00 0x40 0x00 0x00
Standard ID: 0x0C5       DLC: 8  Data: 0x10 0x00 0x00 0x00 0x10 0x00 0x00 0x00
Standard ID: 0x0C1       DLC: 8  Data: 0x90 0x01 0x1F 0xE8 0x10 0x00 0x00 0x00
Standard ID: 0x0C9       DLC: 8  Data: 0x00 0x00 0x00 0x07 0x00 0x10 0x00 0x00
Standard ID: 0x0D3       DLC: 8  Data: 0x2B 0xBC 0x00 0x07 0x00 0x10 0x00 0x00
Standard ID: 0x0C5       DLC: 8  Data: 0x20 0x00 0x00 0x00 0x20 0x00 0x00 0x00
Standard ID: 0x1C5       DLC: 8  Data: 0x2C 0x34 0x2C 0x03 0x30 0x2C 0x05 0xFE
Standard ID: 0x1F4       DLC: 8  Data: 0x00 0x00 0x00 0x00 0x00 0x00 0x00 0x00
Standard ID: 0x3F9       DLC: 8  Data: 0x00 0x03 0xF7 0x25 0xFA 0x00 0xEC 0x24
Standard ID: 0x137       DLC: 8  Data: 0x00 0x00 0x00 0x00 0x00 0x00 0x00 0x00
Standard ID: 0x0F1       DLC: 6  Data: 0x28 0x00 0x00 0x40 0x00 0x00
Standard ID: 0x0C1       DLC: 8  Data: 0xB0 0x01 0x1F 0xE8 0x30 0x00 0x00 0x00
Standard ID: 0x0D1       DLC: 7  Data: 0xC0 0x00 0xFF 0xF9 0x00 0xF9 0x00
Standard ID: 0x210       DLC: 4  Data: 0x04 0x00 0x01 0xFE
Standard ID: 0x365       DLC: 4  Data: 0x00 0x00 0x00 0x00
Standard ID: 0x0F1       DLC: 6  Data: 0x1C 0x00 0x00 0x40 0x00 0x00
Standard ID: 0x160       DLC: 5  Data: 0x00 0x00 0x00 0x00 0x00
Standard ID: 0x0F1       DLC: 6  Data: 0x34 0x00 0x00 0x40 0x00 0x00
Standard ID: 0x0C1       DLC: 8  Data: 0x80 0x01 0x1F 0xE8 0x00 0x00 0x00 0x00
Standard ID: 0x0C5       DLC: 8  Data: 0x00 0x00 0x00 0x00 0x00 0x00 0x00 0x00
Standard ID: 0x1CE       DLC: 4  Data: 0x00 0x00 0x00 0x00
Standard ID: 0x0C9       DLC: 8  Data: 0x00 0x00 0x00 0x0D 0x00 0x10 0x00 0x00
Standard ID: 0x1A1       DLC: 8  Data: 0x00 0x00 0x40 0x00 0x89 0x66 0x00 0x00
Standard ID: 0x1F4       DLC: 8  Data: 0x00 0x00 0x00 0x00 0x00 0x00 0x00 0x00
Standard ID: 0x0D1       DLC: 7  Data: 0x00 0x00 0x00 0x00 0x00 0x00 0x00
Standard ID: 0x0F1       DLC: 6  Data: 0x00 0x00 0x00 0x40 0x00 0x00
Standard ID: 0x0C5       DLC: 8  Data: 0x10 0x00 0x00 0x00 0x10 0x00 0x00 0x00
Standard ID: 0x0C1       DLC: 8  Data: 0x90 0x01 0x1F 0xE8 0x10 0x00 0x00 0x00
Standard ID: 0x3C9       DLC: 8  Data: 0x07 0x66 0x00 0x00 0x00 0x00 0x00 0x00
Standard ID: 0x0C9       DLC: 8  Data: 0x00 0x00 0x00 0x00 0x00 0x10 0x00 0x00
Standard ID: 0x0D3       DLC: 8  Data: 0x2B 0xBC 0x00 0x00 0x00 0x10 0x00 0x00
Standard ID: 0x0F1       DLC: 6  Data: 0x1C 0x00 0x00 0x40 0x00 0x00
Standard ID: 0x0C1       DLC: 8  Data: 0xA0 0x01 0x1F 0xE8 0x20 0x00 0x00 0x00
Standard ID: 0x0D1       DLC: 7  Data: 0x80 0x00 0xBF 0xFE 0x00 0xFE 0x00
Standard ID: 0x1E1       DLC: 7  Data: 0x00 0x00 0x04 0x00 0x01 0x00 0x00
Standard ID: 0x1F3       DLC: 3  Data: 0x40 0x7C 0x00
Standard ID: 0x3CB       DLC: 6  Data: 0x31 0x3B 0x00 0x00 0x13 0xD6
Standard ID: 0x3E7       DLC: 2  Data: 0x00 0x65
Standard ID: 0x0C9       DLC: 8  Data: 0x00 0x00 0x00 0x07 0x00 0x10 0x00 0x00
Standard ID: 0x0D3       DLC: 8  Data: 0x2B 0xBC 0x00 0x07 0x00 0x10 0x00 0x00
Standard ID: 0x0C5       DLC: 8  Data: 0x30 0x00 0x00 0x00 0x30 0x00 0x00 0x00
Standard ID: 0x1C5       DLC: 8  Data: 0x2C 0x34 0x2C 0x03 0x30 0x2C 0x00 0x00
Standard ID: 0x3C1       DLC: 8  Data: 0x07 0x65 0x14 0x00 0x00 0x00 0x00 0x00
Standard ID: 0x0F1       DLC: 6  Data: 0x28 0x00 0x00 0x40 0x00 0x00
Standard ID: 0x4C5       DLC: 3  Data: 0x00 0x00 0x00
Standard ID: 0x0F1       DLC: 6  Data: 0x34 0x00 0x00 0x40 0x00 0x00
Standard ID: 0x0C1       DLC: 8  Data: 0x80 0x01 0x1F 0xE8 0x00 0x00 0x00 0x00
Standard ID: 0x0C5       DLC: 8  Data: 0x00 0x00 0x00 0x00 0x00 0x00 0x00 0x00
Standard ID: 0x0F9       DLC: 8  Data: 0x00 0x00 0x00 0x00 0x00 0x00 0x00 0x00
Standard ID: 0x214       DLC: 6  Data: 0x06 0x00 0x01 0xFD 0x0C 0x01
Standard ID: 0x17D       DLC: 6  Data: 0x22 0x24 0x42 0xFF 0x00 0x00
Standard ID: 0x4D7       DLC: 5  Data: 0x01 0x3E 0x98 0xE5 0xC3
Standard ID: 0x0D1       DLC: 7  Data: 0x00 0x00 0x3F 0xFC 0x00 0xFC 0x00
Standard ID: 0x0F1       DLC: 6  Data: 0x00 0x00 0x00 0x40 0x00 0x00
Standard ID: 0x0C1       DLC: 8  Data: 0x90 0x01 0x1F 0xE8 0x10 0x00 0x00 0x00
Standard ID: 0x1E1       DLC: 7  Data: 0x00 0x00 0x04 0x00 0x02 0x04 0xF0
Standard ID: 0x0C9       DLC: 8  Data: 0x00 0x00 0x00 0x0D 0x00 0x10 0x00 0x00
Standard ID: 0x0F9       DLC: 8  Data: 0x00 0x00 0x00 0x00 0x00 0x00 0x00 0x00
Standard ID: 0x1F4       DLC: 8  Data: 0x00 0x00 0x00 0x00 0x00 0x00 0x00 0x00
Standard ID: 0x0C5       DLC: 8  Data: 0x10 0x00 0x00 0x00 0x10 0x00 0x00 0x00
Standard ID: 0x0F1       DLC: 6  Data: 0x1C 0x00 0x00 0x40 0x00 0x00
Standard ID: 0x0C5       DLC: 8  Data: 0x20 0x00 0x00 0x00 0x20 0x00 0x00 0x00
Standard ID: 0x1C6       DLC: 8  Data: 0x00 0x00 0x00 0x00 0x00 0xC3 0xFF 0xFD
Standard ID: 0x4E9       DLC: 6  Data: 0xE1 0x40 0x05 0xEA 0x8C 0x25
Standard ID: 0x0C1       DLC: 8  Data: 0xA0 0x01 0x1F 0xE8 0x20 0x00 0x00 0x00
Standard ID: 0x0C9       DLC: 8  Data: 0x00 0x00 0x00 0x00 0x00 0x10 0x00 0xFF
Standard ID: 0x514       DLC: 8  Data: 0x30 0x56 0x30 0x58 0x45 0x50 0x36 0x38
Standard ID: 0x0F1       DLC: 6  Data: 0x28 0x00 0x00 0x40 0x00 0x00
Standard ID: 0x0C5       DLC: 8  Data: 0x30 0x00 0x00 0x00 0x30 0x00 0x00 0x00
Standard ID: 0x0C1       DLC: 8  Data: 0xB0 0x01 0x1F 0xE8 0x30 0x00 0x00 0x00
Standard ID: 0x530       DLC: 4  Data: 0x00 0x00 0x00 0x00
Standard ID: 0x0C9       DLC: 8  Data: 0x00 0x00 0x00 0x07 0x00 0x10 0x00 0xFF
Standard ID: 0x0D3       DLC: 8  Data: 0x2B 0xBC 0x00 0x07 0x00 0x10 0x00 0xFF
Standard ID: 0x0C5       DLC: 8  Data: 0x00 0x00 0x00 0x00 0x00 0x00 0x00 0x00
Standard ID: 0x1C5       DLC: 8  Data: 0x2C 0x34 0x2C 0x03 0x30 0x2C 0x05 0xFE
Standard ID: 0x1F4       DLC: 8  Data: 0x00 0x00 0x00 0x00 0x00 0x00 0x00 0x00
Standard ID: 0x0F1       DLC: 6  Data: 0x34 0x00 0x00 0x40 0x00 0x00
Standard ID: 0x137       DLC: 8  Data: 0x00 0x00 0x00 0x00 0x00 0x00 0x00 0x00
Standard ID: 0x0F1       DLC: 6  Data: 0x00 0x00 0x00 0x40 0x00 0x00
Standard ID: 0x0C1       DLC: 8  Data: 0x90 0x01 0x1F 0xE8 0x10 0x00 0x00 0x00
Standard ID: 0x0C5       DLC: 8  Data: 0x10 0x00 0x00 0x00 0x10 0x00 0x00 0x00
Standard ID: 0x1E5       DLC: 8  Data: 0x44 0x00 0x39 0x10 0x00 0x00 0x00 0xC9
Standard ID: 0x365       DLC: 4  Data: 0x00 0x00 0x00 0x00
Standard ID: 0x0D1       DLC: 7  Data: 0x40 0x00 0x7F 0xFF 0x00 0xFF 0x00
Standard ID: 0x1E1       DLC: 7  Data: 0x00 0x00 0x04 0x00 0x03 0x08 0xE0
Standard ID: 0x0F1       DLC: 6  Data: 0x1C 0x00 0x00 0x40 0x00 0x00
Standard ID: 0x0C1       DLC: 8  Data: 0xA0 0x01 0x1F 0xE8 0x20 0x00 0x00 0x00
Standard ID: 0x0C5       DLC: 8  Data: 0x20 0x00 0x00 0x00 0x20 0x00 0x00 0x00
Standard ID: 0x1CE       DLC: 4  Data: 0x08 0x00 0x07 0xFF
Standard ID: 0x0C9       DLC: 8  Data: 0x00 0x00 0x00 0x0D 0x00 0x10 0x00 0xFF
Standard ID: 0x1A1       DLC: 8  Data: 0x00 0x00 0x40 0x00 0x89 0x66 0x00 0x00
Standard ID: 0x1F4       DLC: 8  Data: 0x00 0x00 0x00 0x00 0x00 0x00 0x00 0x00
Standard ID: 0x0D1       DLC: 7  Data: 0x80 0x00 0xBF 0xFE 0x00 0xFE 0x00
Standard ID: 0x0F1       DLC: 6  Data: 0x28 0x00 0x00 0x40 0x00 0x00
Standard ID: 0x0C5       DLC: 8  Data: 0x30 0x00 0x00 0x00 0x30 0x00 0x00 0x00
Standard ID: 0x0C1       DLC: 8  Data: 0xB0 0x01 0x1F 0xE8 0x30 0x00 0x00 0x00
Standard ID: 0x1F3       DLC: 3  Data: 0x00 0x3C 0x00
Standard ID: 0x0C9       DLC: 8  Data: 0x00 0x00 0x00 0x00 0x00 0x10 0x00 0xFF
Standard ID: 0x0D3       DLC: 8  Data: 0x2B 0xBC 0x00 0x00 0x00 0x10 0x00 0xFF
Standard ID: 0x0F1       DLC: 6  Data: 0x34 0x00 0x00 0x40 0x00 0x00
Standard ID: 0x0C1       DLC: 8  Data: 0x80 0x01 0x1F 0xE8 0x00 0x00 0x00 0x00
Standard ID: 0x0D1       DLC: 7  Data: 0x00 0x00 0x3F 0xFC 0x00 0xFC 0x00
Standard ID: 0x1E9       DLC: 8  Data: 0x0F 0xF0 0x00 0x06 0x00 0x08 0x00 0x00
Standard ID: 0x3E7       DLC: 2  Data: 0x00 0x65
Standard ID: 0x3C9       DLC: 8  Data: 0x07 0x66 0x00 0x00 0x00 0x00 0x00 0x00
Standard ID: 0x451       DLC: 6  Data: 0x00 0x00 0x00 0x00 0x00 0x00
Standard ID: 0x0C9       DLC: 8  Data: 0x00 0x00 0x00 0x07 0x00 0x10 0x00 0xFF
Standard ID: 0x0F1       DLC: 6  Data: 0x00 0x00 0x00 0x40 0x00 0x00
Standard ID: 0x0C5       DLC: 8  Data: 0x10 0x00 0x00 0x00 0x10 0x00 0x00 0x00
Standard ID: 0x1E5       DLC: 8  Data: 0x44 0x00 0x39 0x10 0x00 0x00 0x00 0xC9
Standard ID: 0x3C1       DLC: 8  Data: 0x07 0x65 0x14 0x00 0x00 0x00 0x00 0x00
Standard ID: 0x0D3       DLC: 8  Data: 0x2B 0xBC 0x00 0x07 0x00 0x10 0x00 0xFF
Standard ID: 0x0F1       DLC: 6  Data: 0x1C 0x00 0x00 0x40 0x00 0x00
Standard ID: 0x0C1       DLC: 8  Data: 0xA0 0x01 0x1F 0xE8 0x20 0x00 0x00 0x00
Standard ID: 0x0C5       DLC: 8  Data: 0x20 0x00 0x00 0x00 0x20 0x00 0x00 0x00
Standard ID: 0x1E5       DLC: 8  Data: 0x44 0x00 0x39 0x30 0x00 0x00 0x00 0xE9
Standard ID: 0x232       DLC: 7  Data: 0x00 0x00 0x00 0x00 0x00 0x00 0x00
Standard ID: 0x365       DLC: 4  Data: 0x00 0x00 0x00 0x00
Standard ID: 0x451       DLC: 6  Data: 0x00 0x00 0x00 0x00 0x00 0x00
Standard ID: 0x0D1       DLC: 7  Data: 0x80 0x00 0xBF 0xFA 0x00 0xFA 0x00
Standard ID: 0x0F1       DLC: 6  Data: 0x28 0x00 0x00 0x40 0x00 0x00
Standard ID: 0x0C1       DLC: 8  Data: 0xB0 0x01 0x1F 0xE8 0x30 0x00 0x00 0x00
Standard ID: 0x0C5       DLC: 8  Data: 0x30 0x00 0x00 0x00 0x30 0x00 0x00 0x00
Standard ID: 0x0C9       DLC: 8  Data: 0x00 0x00 0x00 0x0D 0x00 0x10 0x00 0xFF
Standard ID: 0x1A1       DLC: 8  Data: 0x00 0x00 0x40 0x00 0x89 0x66 0x00 0x00
Standard ID: 0x1F4       DLC: 8  Data: 0x00 0x00 0x00 0x00 0x00 0x00 0x00 0x00
Standard ID: 0x0D3       DLC: 8  Data: 0x2B 0xBC 0x00 0x0D 0x00 0x10 0x00 0xFF
Standard ID: 0x0F1       DLC: 6  Data: 0x34 0x00 0x00 0x40 0x00 0x00
Standard ID: 0x0C5       DLC: 8  Data: 0x00 0x00 0x00 0x00 0x00 0x00 0x00 0x00
Standard ID: 0x1C7       DLC: 7  Data: 0x06 0xA0 0x39 0x60 0x00 0x00 0x3E
Standard ID: 0x0C1       DLC: 8  Data: 0x80 0x01 0x1F 0xE8 0x00 0x00 0x00 0x00
Standard ID: 0x0C9       DLC: 8  Data: 0x00 0x00 0x00 0x00 0x00 0x10 0x00 0xFF
Standard ID: 0x0D3       DLC: 8  Data: 0x2B 0xBC 0x00 0x00 0x00 0x10 0x00 0xFF
Standard ID: 0x0F1       DLC: 6  Data: 0x00 0x00 0x00 0x40 0x00 0x00
Standard ID: 0x0C1       DLC: 8  Data: 0x90 0x01 0x1F 0xE8 0x10 0x00 0x00 0x00
Standard ID: 0x0D1       DLC: 7  Data: 0x40 0x00 0x7F 0xFF 0x00 0xFF 0x00
Standard ID: 0x0F9       DLC: 8  Data: 0x00 0x00 0x00 0x00 0x00 0x00 0x00 0x00
Standard ID: 0x1F3       DLC: 3  Data: 0x80 0xBC 0x00
Standard ID: 0x0C9       DLC: 8  Data: 0x00 0x00 0x00 0x07 0x00 0x10 0x00 0xFF
Standard ID: 0x0F1       DLC: 6  Data: 0x1C 0x00 0x00 0x40 0x00 0x00
Standard ID: 0x0C5       DLC: 8  Data: 0x20 0x00 0x00 0x00 0x20 0x00 0x00 0x00
Standard ID: 0x1C4       DLC: 8  Data: 0x4A 0x62 0xC0 0xC7 0x04 0x00 0x05 0xFE
Standard ID: 0x1E9       DLC: 8  Data: 0x0F 0xF6 0x00 0x06 0x00 0x08 0x00 0x00
Standard ID: 0x2D3       DLC: 8  Data: 0x00 0x00 0x00 0x00 0x00 0x00 0x00 0x00
Standard ID: 0x137       DLC: 8  Data: 0x00 0x00 0x00 0x00 0x00 0x00 0x00 0x00
Standard ID: 0x0F1       DLC: 6  Data: 0x28 0x00 0x00 0x40 0x00 0x00
Standard ID: 0x0D3       DLC: 8  Data: 0x2B 0xBC 0x00 0x07 0x00 0x10 0x00 0xFF
Standard ID: 0x0C1       DLC: 8  Data: 0xB0 0x01 0x1F 0xE8 0x30 0x00 0x00 0x00
Standard ID: 0x1E5       DLC: 8  Data: 0x44 0x00 0x39 0x50 0x00 0x00 0x01 0x09
Standard ID: 0x362       DLC: 4  Data: 0x00 0x00 0x00 0x00
Standard ID: 0x0C5       DLC: 8  Data: 0x30 0x00 0x00 0x00 0x30 0x00 0x00 0x00
Standard ID: 0x1F1       DLC: 8  Data: 0x80 0x0E 0x00 0x00 0x18 0x00 0x00 0x72
Standard ID: 0x0F1       DLC: 6  Data: 0x34 0x00 0x00 0x40 0x00 0x00
Standard ID: 0x0C1       DLC: 8  Data: 0x80 0x01 0x1F 0xE8 0x00 0x00 0x00 0x00
Standard ID: 0x0C5       DLC: 8  Data: 0x00 0x00 0x00 0x00 0x00 0x00 0x00 0x00
Standard ID: 0x1CE       DLC: 4  Data: 0x10 0x00 0x07 0xFE
Standard ID: 0x0C9       DLC: 8  Data: 0x00 0x00 0x00 0x0D 0x00 0x10 0x00 0xFF
Standard ID: 0x1A1       DLC: 8  Data: 0x00 0x00 0x40 0x00 0x89 0x66 0x00 0x00
Standard ID: 0x1F4       DLC: 8  Data: 0x00 0x00 0x00 0x00 0x00 0x00 0x00 0x00
Standard ID: 0x0D1       DLC: 7  Data: 0x00 0x00 0x3F 0xFC 0x00 0xFC 0x00
Standard ID: 0x0F1       DLC: 6  Data: 0x00 0x00 0x00 0x40 0x00 0x00
Standard ID: 0x0C5       DLC: 8  Data: 0x10 0x00 0x00 0x00 0x10 0x00 0x00 0x00
Standard ID: 0x0C1       DLC: 8  Data: 0x90 0x01 0x1F 0xE8 0x10 0x00 0x00 0x00
Standard ID: 0x3CB       DLC: 6  Data: 0x31 0x3F 0x00 0x00 0x14 0x4B
Standard ID: 0x0C9       DLC: 8  Data: 0x00 0x00 0x00 0x00 0x00 0x10 0x00 0xFF
Standard ID: 0x0D3       DLC: 8  Data: 0x2B 0xBC 0x00 0x00 0x00 0x10 0x00 0xFF
Standard ID: 0x0F1       DLC: 6  Data: 0x1C 0x00 0x00 0x40 0x00 0x00
Standard ID: 0x0C1       DLC: 8  Data: 0xA0 0x01 0x1F 0xE8 0x20 0x00 0x00 0x00
Standard ID: 0x0D1       DLC: 7  Data: 0x80 0x00 0xBF 0xFA 0x00 0xFA 0x00
Standard ID: 0x1E9       DLC: 8  Data: 0x0F 0xF0 0x00 0x06 0x00 0x08 0x00 0x00
Standard ID: 0x3E7       DLC: 2  Data: 0x00 0x65
Standard ID: 0x0C9       DLC: 8  Data: 0x00 0x00 0x00 0x07 0x00 0x10 0x00 0xFF
Standard ID: 0x0F1       DLC: 6  Data: 0x28 0x00 0x00 0x40 0x00 0x00
Standard ID: 0x0C5       DLC: 8  Data: 0x30 0x00 0x00 0x00 0x30 0x00 0x00 0x00
Standard ID: 0x1E1       DLC: 7  Data: 0x00 0x00 0x04 0x00 0x00 0x0C 0xD0
Standard ID: 0x2D3       DLC: 8  Data: 0x00 0x00 0x00 0x00 0x00 0x00 0x00 0x00
Standard ID: 0x3F9       DLC: 8  Data: 0x00 0x03 0xF7 0x25 0xFA 0x00 0xEC 0x24
Standard ID: 0x4F3       DLC: 8  Data: 0x2A 0x00 0x00 0x00 0x00 0x00 0x00 0x00
Standard ID: 0x0D3       DLC: 8  Data: 0x2B 0xBC 0x00 0x07 0x00 0x10 0x00 0xFF
Standard ID: 0x0F1       DLC: 6  Data: 0x34 0x00 0x00 0x40 0x00 0x00
Standard ID: 0x0C5       DLC: 8  Data: 0x00 0x00 0x00 0x00 0x00 0x00 0x00 0x00
Standard ID: 0x0D3       DLC: 8  Data: 0x2B 0xBC 0x00 0x0A 0x00 0x10 0x00 0xFF
Standard ID: 0x232       DLC: 7  Data: 0x00 0x00 0x00 0x00 0x00 0x00 0x00
Standard ID: 0x370       DLC: 6  Data: 0x00 0x00 0x00 0x00 0x00 0x00
Standard ID: 0x0C1       DLC: 8  Data: 0x80 0x01 0x1F 0xE8 0x00 0x00 0x00 0x00
Standard ID: 0x0F1       DLC: 6  Data: 0x00 0x00 0x00 0x40 0x00 0x00
Standard ID: 0x0C1       DLC: 8  Data: 0x90 0x01 0x1F 0xE8 0x10 0x00 0x00 0x00
Standard ID: 0x0C5       DLC: 8  Data: 0x10 0x00 0x00 0x00 0x10 0x00 0x00 0x00
Standard ID: 0x0D1       DLC: 7  Data: 0x40 0x00 0x7F 0xFF 0x00 0xFF 0x00
Standard ID: 0x0C9       DLC: 8  Data: 0x00 0x00 0x00 0x0D 0x00 0x10 0x00 0xFF
Standard ID: 0x1A1       DLC: 8  Data: 0x00 0x00 0x40 0x00 0x89 0x66 0x00 0x00
Standard ID: 0x589       DLC: 8  Data: 0x40 0x7D 0x76 0xF6 0x9B 0x66 0xD0 0xC4
Standard ID: 0x0F1       DLC: 6  Data: 0x1C 0x00 0x00 0x40 0x00 0x00
Standard ID: 0x0C1       DLC: 8  Data: 0xA0 0x01 0x1F 0xE8 0x20 0x00 0x00 0x00
Standard ID: 0x0D1       DLC: 7  Data: 0x80 0x00 0xBF 0xFE 0x00 0xFE 0x00
Standard ID: 0x1E1       DLC: 7  Data: 0x00 0x00 0x04 0x00 0x01 0x00 0x00
Standard ID: 0x1F3       DLC: 3  Data: 0x40 0x7C 0x00
Standard ID: 0x0D3       DLC: 8  Data: 0x2B 0xBC 0x00 0x0D 0x00 0x10 0x00 0xFF
Standard ID: 0x0C9       DLC: 8  Data: 0x00 0x00 0x00 0x00 0x00 0x10 0x00 0xFF
Standard ID: 0x451       DLC: 6  Data: 0x00 0x00 0x00 0x00 0x00 0x00
Standard ID: 0x0F1       DLC: 6  Data: 0x28 0x00 0x00 0x40 0x00 0x00
Standard ID: 0x0C5       DLC: 8  Data: 0x30 0x00 0x00 0x00 0x30 0x00 0x00 0x00
Standard ID: 0x0C1       DLC: 8  Data: 0xB0 0x01 0x1F 0xE8 0x30 0x00 0x00 0x00
Standard ID: 0x0C9       DLC: 8  Data: 0x00 0x00 0x00 0x07 0x00 0x10 0x00 0xFF
Standard ID: 0x0F1       DLC: 6  Data: 0x34 0x00 0x00 0x40 0x00 0x00
Standard ID: 0x0C5       DLC: 8  Data: 0x00 0x00 0x00 0x00 0x00 0x00 0x00 0x00
Standard ID: 0x1C4       DLC: 8  Data: 0x4A 0x62 0xC0 0xC7 0x04 0x00 0x05 0xFE
Standard ID: 0x1E9       DLC: 8  Data: 0x0F 0xF0 0x00 0x06 0x00 0x08 0x00 0x00
Standard ID: 0x2D3       DLC: 8  Data: 0x00 0x00 0x00 0x00 0x00 0x00 0x00 0x00
Standard ID: 0x137       DLC: 8  Data: 0x00 0x00 0x00 0x00 0x00 0x00 0x00 0x00
Standard ID: 0x0F1       DLC: 6  Data: 0x00 0x00 0x00 0x40 0x00 0x00
Standard ID: 0x0D3       DLC: 8  Data: 0x2B 0xBC 0x00 0x07 0x00 0x10 0x00 0xFF
Standard ID: 0x0C1       DLC: 8  Data: 0x90 0x01 0x1F 0xE8 0x10 0x00 0x00 0x00
Standard ID: 0x1E5       DLC: 8  Data: 0x44 0x00 0x39 0x10 0x00 0x00 0x00 0xC9
Standard ID: 0x362       DLC: 4  Data: 0x00 0x00 0x00 0x00
Standard ID: 0x0C5       DLC: 8  Data: 0x10 0x00 0x00 0x00 0x10 0x00 0x00 0x00
Standard ID: 0x1E1       DLC: 7  Data: 0x00 0x00 0x04 0x00 0x02 0x04 0xF0
Standard ID: 0x0F1       DLC: 6  Data: 0x1C 0x00 0x00 0x40 0x00 0x00
Standard ID: 0x0C1       DLC: 8  Data: 0xA0 0x01 0x1F 0xE8 0x20 0x00 0x00 0x00
Standard ID: 0x0C5       DLC: 8  Data: 0x20 0x00 0x00 0x00 0x20 0x00 0x00 0x00
Standard ID: 0x1CE       DLC: 4  Data: 0x18 0x00 0x07 0xFD
Standard ID: 0x0C9       DLC: 8  Data: 0x00 0x00 0x00 0x0D 0x00 0x10 0x00 0xFF
Standard ID: 0x1A1       DLC: 8  Data: 0x00 0x00 0x40 0x00 0x89 0x66 0x00 0x00
Standard ID: 0x1F5       DLC: 8  Data: 0xED 0x00 0x00 0x0F 0x18 0x00 0x03 0x1C
Standard ID: 0x0F1       DLC: 6  Data: 0x28 0x00 0x00 0x40 0x00 0x00
Standard ID: 0x0D1       DLC: 7  Data: 0x80 0x00 0xBF 0xFA 0x00 0xFA 0x00
Standard ID: 0x0C1       DLC: 8  Data: 0xB0 0x01 0x1F 0xE8 0x30 0x00 0x00 0x00
Standard ID: 0x0C5       DLC: 8  Data: 0x30 0x00 0x00 0x00 0x30 0x00 0x00 0x00
Standard ID: 0x3CB       DLC: 6  Data: 0x31 0x3F 0x00 0x00 0x14 0x4B
Standard ID: 0x0C9       DLC: 8  Data: 0x00 0x00 0x00 0x00 0x00 0x10 0x00 0xFF
Standard ID: 0x0D3       DLC: 8  Data: 0x2B 0xBC 0x00 0x00 0x00 0x10 0x00 0xFF
Standard ID: 0x0F1       DLC: 6  Data: 0x34 0x00 0x00 0x40 0x00 0x00
Standard ID: 0x0C1       DLC: 8  Data: 0x80 0x01 0x1F 0xE8 0x00 0x00 0x00 0x00
Standard ID: 0x0D1       DLC: 7  Data: 0x00 0x00 0x00 0x00 0x00 0x00 0x00
Standard ID: 0x1E1       DLC: 7  Data: 0x00 0x00 0x04 0x00 0x03 0x08 0xE0
Standard ID: 0x1F3       DLC: 3  Data: 0xC0 0xFC 0x00
Standard ID: 0x3E7       DLC: 2  Data: 0x00 0x65
Standard ID: 0x451       DLC: 6  Data: 0x00 0x00 0x00 0x00 0x00 0x00
Standard ID: 0x0C9       DLC: 8  Data: 0x00 0x00 0x00 0x07 0x00 0x10 0x00 0xFF
Standard ID: 0x0F1       DLC: 6  Data: 0x00 0x00 0x00 0x40 0x00 0x00
Standard ID: 0x0C5       DLC: 8  Data: 0x10 0x00 0x00 0x00 0x10 0x00 0x00 0x00
Standard ID: 0x1E5       DLC: 8  Data: 0x44 0x00 0x39 0x10 0x00 0x00 0x00 0xC9
Standard ID: 0x3C1       DLC: 8  Data: 0x07 0x65 0x14 0x00 0x00 0x00 0x00 0x00
Standard ID: 0x0D3       DLC: 8  Data: 0x2B 0xBC 0x00 0x07 0x00 0x10 0x00 0xFF
Standard ID: 0x0F1       DLC: 6  Data: 0x1C 0x00 0x00 0x40 0x00 0x00
Standard ID: 0x0C1       DLC: 8  Data: 0xA0 0x01 0x1F 0xE8 0x20 0x00 0x00 0x00
Standard ID: 0x0C5       DLC: 8  Data: 0x20 0x00 0x00 0x00 0x20 0x00 0x00 0x00
Standard ID: 0x0F9       DLC: 8  Data: 0x00 0x00 0x00 0x00 0x00 0x00 0x00 0x00
Standard ID: 0x214       DLC: 6  Data: 0x02 0x00 0x01 0xFF 0x04 0x03
Standard ID: 0x17D       DLC: 6  Data: 0x22 0x24 0x42 0xFF 0x00 0x00
Standard ID: 0x0D1       DLC: 7  Data: 0x80 0x00 0xBF 0xFE 0x00 0xFE 0x00
Standard ID: 0x0F1       DLC: 6  Data: 0x28 0x00 0x00 0x40 0x00 0x00
Standard ID: 0x0C1       DLC: 8  Data: 0xB0 0x01 0x1F 0xE8 0x30 0x00 0x00 0x00
Standard ID: 0x0C5       DLC: 8  Data: 0x30 0x00 0x00 0x00 0x30 0x00 0x00 0x00
Standard ID: 0x0D1       DLC: 7  Data: 0xC0 0x00 0xFF 0xFD 0x00 0xFD 0x00
Standard ID: 0x0C9       DLC: 8  Data: 0x00 0x00 0x00 0x0D 0x00 0x10 0x00 0xFF
Standard ID: 0x1A1       DLC: 8  Data: 0x00 0x00 0x40 0x00 0x89 0x66 0x00 0x00
Standard ID: 0x1F3       DLC: 3  Data: 0x00 0x3C 0x00
Standard ID: 0x0F1       DLC: 6  Data: 0x34 0x00 0x00 0x40 0x00 0x00
Standard ID: 0x0C1       DLC: 8  Data: 0x80 0x01 0x1F 0xE8 0x00 0x00 0x00 0x00
Standard ID: 0x0C5       DLC: 8  Data: 0x00 0x00 0x00 0x00 0x00 0x00 0x00 0x00
Standard ID: 0x1CE       DLC: 4  Data: 0x10 0x00 0x07 0xFE
Standard ID: 0x0D1       DLC: 7  Data: 0x00 0x00 0x3F 0xFC 0x00 0xFC 0x00
Standard ID: 0x0C9       DLC: 8  Data: 0x00 0x00 0x00 0x00 0x00 0x10 0x00 0xFF
Standard ID: 0x0D3       DLC: 8  Data: 0x2B 0xBC 0x00 0x00 0x00 0x10 0x00 0xFF
Standard ID: 0x0F1       DLC: 6  Data: 0x00 0x00 0x00 0x40 0x00 0x00
Standard ID: 0x0C1       DLC: 8  Data: 0x90 0x01 0x1F 0xE8 0x10 0x00 0x00 0x00
Standard ID: 0x0D1       DLC: 7  Data: 0x40 0x00 0x7F 0xFB 0x00 0xFB 0x00
Standard ID: 0x0F9       DLC: 8  Data: 0x00 0x00 0x00 0x00 0x00 0x00 0x00 0x00
Standard ID: 0x0C9       DLC: 8  Data: 0x00 0x00 0x00 0x07 0x00 0x10 0x00 0xFF
Standard ID: 0x0F1       DLC: 6  Data: 0x1C 0x00 0x00 0x40 0x00 0x00
Standard ID: 0x0C5       DLC: 8  Data: 0x20 0x00 0x00 0x00 0x20 0x00 0x00 0x00
Standard ID: 0x1C4       DLC: 8  Data: 0x4A 0x62 0xC0 0xC7 0x04 0x00 0x05 0xFE
Standard ID: 0x1E9       DLC: 8  Data: 0x0F 0xF6 0x00 0x06 0x00 0x08 0x00 0x00
Standard ID: 0x2D3       DLC: 8  Data: 0x00 0x00 0x00 0x00 0x00 0x00 0x00 0x00
Standard ID: 0x137       DLC: 8  Data: 0x00 0x00 0x00 0x00 0x00 0x00 0x00 0x00
Standard ID: 0x0F1       DLC: 6  Data: 0x28 0x00 0x00 0x40 0x00 0x00
Standard ID: 0x0D3       DLC: 8  Data: 0x2B 0xBC 0x00 0x07 0x00 0x10 0x00 0xFF
Standard ID: 0x0C1       DLC: 8  Data: 0xB0 0x01 0x1F 0xE8 0x30 0x00 0x00 0x00
Standard ID: 0x1E5       DLC: 8  Data: 0x44 0x00 0x39 0x50 0x00 0x00 0x01 0x09
Standard ID: 0x365       DLC: 4  Data: 0x00 0x00 0x00 0x00
Standard ID: 0x0C5       DLC: 8  Data: 0x30 0x00 0x00 0x00 0x30 0x00 0x00 0x00
Standard ID: 0x1E1       DLC: 7  Data: 0x00 0x00 0x04 0x00 0x01 0x00 0x00
Standard ID: 0x0F1       DLC: 6  Data: 0x34 0x00 0x00 0x40 0x00 0x00
Standard ID: 0x0C1       DLC: 8  Data: 0x80 0x01 0x1F 0xE8 0x00 0x00 0x00 0x00
Standard ID: 0x0C5       DLC: 8  Data: 0x00 0x00 0x00 0x00 0x00 0x00 0x00 0x00
Standard ID: 0x1CE       DLC: 4  Data: 0x00 0x00 0x00 0x00
Standard ID: 0x0C9       DLC: 8  Data: 0x00 0x00 0x00 0x0D 0x00 0x10 0x00 0xFF
Standard ID: 0x1A1       DLC: 8  Data: 0x00 0x00 0x40 0x00 0x89 0x66 0x00 0x00
Standard ID: 0x1F4       DLC: 8  Data: 0x00 0x00 0x00 0x00 0x00 0x00 0x00 0x00
Standard ID: 0x0D1       DLC: 7  Data: 0x00 0x00 0x00 0x00 0x00 0x00 0x00
Standard ID: 0x0F1       DLC: 6  Data: 0x00 0x00 0x00 0x40 0x00 0x00
Standard ID: 0x0C5       DLC: 8  Data: 0x10 0x00 0x00 0x00 0x10 0x00 0x00 0x00
Standard ID: 0x0C1       DLC: 8  Data: 0x90 0x01 0x1F 0xE8 0x10 0x00 0x00 0x00
Standard ID: 0x1F3       DLC: 3  Data: 0x80 0xBC 0x00
Standard ID: 0x0C9       DLC: 8  Data: 0x00 0x00 0x00 0x00 0x00 0x10 0x00 0xFF
Standard ID: 0x3C9       DLC: 8  Data: 0x07 0x66 0x00 0x00 0x00 0x00 0x00 0x00
Standard ID: 0x0F1       DLC: 6  Data: 0x1C 0x00 0x00 0x40 0x00 0x00
Standard ID: 0x0C1       DLC: 8  Data: 0xA0 0x01 0x1F 0xE8 0x20 0x00 0x00 0x00
Standard ID: 0x0D1       DLC: 7  Data: 0x80 0x00 0xBF 0xFE 0x00 0xFE 0x00
Standard ID: 0x1E9       DLC: 8  Data: 0x0F 0xF6 0x00 0x06 0x00 0x08 0x00 0x00
Standard ID: 0x3E7       DLC: 2  Data: 0x00 0x65
Standard ID: 0x0D3       DLC: 8  Data: 0x2B 0xBC 0x00 0x00 0x00 0x10 0x00 0xFF
Standard ID: 0x451       DLC: 6  Data: 0x00 0x00 0x00 0x00 0x00 0x00
Standard ID: 0x0C9       DLC: 8  Data: 0x00 0x00 0x00 0x07 0x00 0x10 0x00 0xFF
Standard ID: 0x0F1       DLC: 6  Data: 0x28 0x00 0x00 0x40 0x00 0x00
Standard ID: 0x0C5       DLC: 8  Data: 0x30 0x00 0x00 0x00 0x30 0x00 0x00 0x00
Standard ID: 0x1E5       DLC: 8  Data: 0x44 0x00 0x39 0x50 0x00 0x00 0x01 0x09
Standard ID: 0x3C1       DLC: 8  Data: 0x07 0x65 0x14 0x00 0x00 0x00 0x00 0x00
Standard ID: 0x0D3       DLC: 8  Data: 0x2B 0xBC 0x00 0x07 0x00 0x10 0x00 0xFF
Standard ID: 0x0F1       DLC: 6  Data: 0x34 0x00 0x00 0x40 0x00 0x00
Standard ID: 0x0C1       DLC: 8  Data: 0x80 0x01 0x1F 0xE8 0x00 0x00 0x00 0x00
Standard ID: 0x0C5       DLC: 8  Data: 0x00 0x00 0x00 0x00 0x00 0x00 0x00 0x00
Standard ID: 0x1E5       DLC: 8  Data: 0x44 0x00 0x39 0x70 0x00 :x00 0x01 0x29
Standard ID: 0x232       DLC: 7  Data: 0x00 0x00 0x00 0x00 0x00 0x00 0x00
Standard ID: 0x365       DLC: 4  Data: 0x00 0x00 0x00 0x00
Standard ID: 0x451       DLC: 6  Data: 0x00 0x00 0x00 0x00 0x00 0x00
Standard ID: 0x0D1       DLC: 7  Data: 0x00 0x00 0x3F 0xFC 0x00 0xFC 0x00
Standard ID: 0x0F1       DLC: 6  Data: 0x00 0x00 0x00 0x40 0x00 0x00
Standard ID: 0x0C1       DLC: 8  Data: 0x90 0x01 0x1F 0xE8 0x10 0x00 0x00 0x00
Standard ID: 0x0C5       DLC: 8  Data: 0x10 0x00 0x00 0x00 0x10 0x00 0x00 0x00
Standard ID: 0x0C9       DLC: 8  Data: 0x00 0x00 0x00 0x0D 0x00 0x10 0x00 0xFF
Standard ID: 0x1A1       DLC: 8  Data: 0x00 0x00 0x40 0x00 0x89 0x66 0x00 0x00
Standard ID: 0x1F4       DLC: 8  Data: 0x00 0x00 0x00 0x00 0x00 0x00 0x00 0x00
Standard ID: 0x0D3       DLC: 8  Data: 0x2B 0xBC 0x00 0x0D 0x00 0x10 0x00 0xFF
Standard ID: 0x0F1       DLC: 6  Data: 0x1C 0x00 0x00 0x40 0x00 0x00
Standard ID: 0x0C5       DLC: 8  Data: 0x20 0x00 0x00 0x00 0x20 0x00 0x00 0x00
Standard ID: 0x1C7       DLC: 7  Data: 0x06 0xA0 0xF9 0x5D 0x00 0x00 0x3E
Standard ID: 0x0C1       DLC: 8  Data: 0xA0 0x01 0x1F 0xE8 0x20 0x00 0x00 0x00
Standard ID: 0x0C9       DLC: 8  Data: 0x00 0x00 0x00 0x00 0x00 0x10 0x00 0xFF
Standard ID: 0x0D3       DLC: 8  Data: 0x2B 0xBC 0x00 0x00 0x00 0x10 0x00 0xFF
Standard ID: 0x0F1       DLC: 6  Data: 0x28 0x00 0x00 0x40 0x00 0x00
Standard ID: 0x0C1       DLC: 8  Data: 0xB0 0x01 0x1F 0xE8 0x30 0x00 0x00 0x00
Standard ID: 0x0D1       DLC: 7  Data: 0xC0 0x00 0xFF 0xF9 0x00 0xF9 0x00
Standard ID: 0x0F9       DLC: 8  Data: 0x00 0x00 0x00 0x00 0x00 0x00 0x00 0x00
Standard ID: 0x1F3       DLC: 3  Data: 0x00 0x3C 0x00
Standard ID: 0x0C9       DLC: 8  Data: 0x00 0x00 0x00 0x07 0x00 0x10 0x00 0xFF
Standard ID: 0x0F1       DLC: 6  Data: 0x34 0x00 0x00 0x40 0x00 0x00
Standard ID: 0x0C5       DLC: 8  Data: 0x00 0x00 0x00 0x00 0x00 0x00 0x00 0x00
Standard ID: 0x1C4       DLC: 8  Data: 0x4A 0x62 0xC0 0xC7 0x04 0x00 0x05 0xFE
Standard ID: 0x1E9       DLC: 8  Data: 0x0F 0xF6 0x00 0x06 0x00 0x08 0x00 0x00
Standard ID: 0x2D3       DLC: 8  Data: 0x00 0x00 0x00 0x00 0x00 0x00 0x00 0x00
Standard ID: 0x137       DLC: 8  Data: 0x00 0x00 0x00 0x00 0x00 0x00 0x00 0x00
Standard ID: 0x0F1       DLC: 6  Data: 0x00 0x00 0x00 0x40 0x00 0x00
Standard ID: 0x0D3       DLC: 8  Data: 0x2B 0xBC 0x00 0x07 0x00 0x10 0x00 0xFF
Standard ID: 0x0C1       DLC: 8  Data: 0x90 0x01 0x1F 0xE8 0x10 0x00 0x00 0x00
Standard ID: 0x1E5       DLC: 8  Data: 0x44 0x00 0x39 0x10 0x00 0x00 0x00 0xC9
Standard ID: 0x362       DLC: 4  Data: 0x00 0x00 0x00 0x00
Standard ID: 0x0C5       DLC: 8  Data: 0x10 0x00 0x00 0x00 0x10 0x00 0x00 0x00
Standard ID: 0x1F1       DLC: 8  Data: 0x80 0x0E 0x00 0x00 0x18 0x00 0x00 0x72
Standard ID: 0x0F1       DLC: 6  Data: 0x1C 0x00 0x00 0x40 0x00 0x00
Standard ID: 0x0C1       DLC: 8  Data: 0xA0 0x01 0x1F 0xE8 0x20 0x00 0x00 0x00
Standard ID: 0x0C5       DLC: 8  Data: 0x20 0x00 0x00 0x00 0x20 0x00 0x00 0x00
Standard ID: 0x1CE       DLC: 4  Data: 0x08 0x00 0x07 0xFF
Standard ID: 0x0C9       DLC: 8  Data: 0x00 0x00 0x00 0x0D 0x00 0x10 0x00 0xFF
Standard ID: 0x1A1       DLC: 8  Data: 0x00 0x00 0x40 0x00 0x89 0x66 0x00 0x00
Standard ID: 0x1F4       DLC: 8  Data: 0x00 0x00 0x00 0x00 0x00 0x00 0x00 0x00
Standard ID: 0x0F1       DLC: 6  Data: 0x28 0x00 0x00 0x40 0x00 0x00
Standard ID: 0x0D1       DLC: 7  Data: 0x80 0x00 0xBF 0xFE 0x00 0xFE 0x00
Standard ID: 0x0C1       DLC: 8  Data: 0xB0 0x01 0x1F 0xE8 0x30 0x00 0x00 0x00
Standard ID: 0x0C5       DLC: 8  Data: 0x30 0x00 0x00 0x00 0x30 0x00 0x00 0x00
Standard ID: 0x3CB       DLC: 6  Data: 0x31 0x43 0x00 0x00 0x14 0xC8
Standard ID: 0x0C9       DLC: 8  Data: 0x00 0x00 0x00 0x00 0x00 0x10 0x00 0xFF
Standard ID: 0x0D3       DLC: 8  Data: 0x2B 0xBC 0x00 0x00 0x00 0x10 0x00 0xFF
Standard ID: 0x0F1       DLC: 6  Data: 0x34 0x00 0x00 0x40 0x00 0x00
Standard ID: 0x0C1       DLC: 8  Data: 0x80 0x01 0x1F 0xE8 0x00 0x00 0x00 0x00
Standard ID: 0x0D1       DLC: 7  Data: 0x00 0x00 0x3F 0xFC 0x00 0xFC 0x00
Standard ID: 0x1E9       DLC: 8  Data: 0x0F 0xF0 0x00 0x06 0x00 0x08 0x00 0x00
Standard ID: 0x451       DLC: 6  Data: 0x00 0x00 0x00 0x00 0x00 0x00
Standard ID: 0x3E7       DLC: 2  Data: 0x00 0x65
Standard ID: 0x4C5       DLC: 3  Data: 0x00 0x00 0x00
Standard ID: 0x0C9       DLC: 8  Data: 0x00 0x00 0x00 0x07 0x00 0x10 0x00 0xFF
Standard ID: 0x0F1       DLC: 6  Data: 0x00 0x00 0x00 0x40 0x00 0x00
Standard ID: 0x0C5       DLC: 8  Data: 0x10 0x00 0x00 0x00 0x10 0x00 0x00 0x00
Standard ID: 0x1E1       DLC: 7  Data: 0x00 0x00 0x04 0x00 0x02 0x04 0xF0
Standard ID: 0x2D3       DLC: 8  Data: 0x00 0x00 0x00 0x00 0x00 0x00 0x00 0x00
Standard ID: 0x0D3       DLC: 8  Data: 0x2B 0xBC 0x00 0x07 0x00 0x10 0x00 0xFF
Standard ID: 0x451       DLC: 6  Data: 0x00 0x00 0x00 0x00 0x00 0x00
Standard ID: 0x0F1       DLC: 6  Data: 0x1C 0x00 0x00 0x40 0x00 0x00
Standard ID: 0x0C1       DLC: 8  Data: 0xA0 0x01 0x1F 0xE8 0x20 0x00 0x00 0x00
Standard ID: 0x0C5       DLC: 8  Data: 0x20 0x00 0x00 0x00 0x20 0x00 0x00 0x00
Standard ID: 0x1C6       DLC: 8  Data: 0x00 0x00 0x00 0x00 0x00 0xC3 0xFF 0xFD
Standard ID: 0x214       DLC: 6  Data: 0x02 0x00 0x01 0xFF 0x04 0x03
Standard ID: 0x17D       DLC: 6  Data: 0x22 0x24 0x42 0xFF 0x00 0x00
Standard ID: 0x0D1       DLC: 7  Data: 0x80 0x00 0xBF 0xFA 0x00 0xFA 0x00
Standard ID: 0x0F1       DLC: 6  Data: 0x28 0x00 0x00 0x40 0x00 0x00
Standard ID: 0x0C1       DLC: 8  Data: 0xB0 0x01 0x1F 0xE8 0x30 0x00 0x00 0x00
Standard ID: 0x0C5       DLC: 8  Data: 0x30 0x00 0x00 0x00 0x30 0x00 0x00 0x00
Standard ID: 0x0D1       DLC: 7  Data: 0xC0 0x00 0xFF 0xF9 0x00 0xF9 0x00
Standard ID: 0x0C9       DLC: 8  Data: 0x00 0x00 0x00 0x0D 0x00 0x10 0x00 0xFF
Standard ID: 0x1A1       DLC: 8  Data: 0x00 0x00 0x40 0x00 0x89 0x66 0x00 0x00
Standard ID: 0x1F5       DLC: 8  Data: 0xED 0x00 0x00 0x0F 0x18 0x00 0x03 0x1C
Standard ID: 0x0F1       DLC: 6  Data: 0x34 0x00 0x00 0x40 0x00 0x00
Standard ID: 0x0C1       DLC: 8  Data: 0x80 0x01 0x1F 0xE8 0x00 0x00 0x00 0x00
Standard ID: 0x0D1       DLC: 7  Data: 0x00 0x00 0x00 0x00 0x00 0x00 0x00
Standard ID: 0x1E1       DLC: 7  Data: 0x00 0x00 0x04 0x00 0x03 0x08 0xE0
Standard ID: 0x1F3       DLC: 3  Data: 0xC0 0xFC 0x00
Standard ID: 0x0D3       DLC: 8  Data: 0x2B 0xBC 0x00 0x0D 0x00 0x10 0x00 0xFF
Standard ID: 0x0C9       DLC: 8  Data: 0x00 0x00 0x00 0x00 0x00 0x10 0x00 0x00
Standard ID: 0x451       DLC: 6  Data: 0x00 0x00 0x00 0x00 0x00 0x00
Standard ID: 0x0F1       DLC: 6  Data: 0x00 0x00 0x00 0x40 0x00 0x00
Standard ID: 0x0C1       DLC: 8  Data: 0x90 0x01 0x1F 0xE8 0x10 0x00 0x00 0x00
Standard ID: 0x0C5       DLC: 8  Data: 0x10 0x00 0x00 0x00 0x10 0x00 0x00 0x00
Standard ID: 0x0C9       DLC: 8  Data: 0x00 0x00 0x00 0x07 0x00 0x10 0x00 0x00
Standard ID: 0x0F1       DLC: 6  Data: 0x1C 0x00 0x00 0x40 0x00 0x00
Standard ID: 0x0C5       DLC: 8  Data: 0x20 0x00 0x00 0x00 0x20 0x00 0x00 0x00
Standard ID: 0x1C4       DLC: 8  Data: 0x4A 0x62 0xC0 0xC7 0x04 0x00 0x05 0xFE
Standard ID: 0x1E9       DLC: 8  Data: 0x0F 0xF6 0x00 0x06 0x00 0x08 0x00 0x00
Standard ID: 0x2D3       DLC: 8  Data: 0x00 0x00 0x00 0x00 0x00 0x00 0x00 0x00
Standard ID: 0x137       DLC: 8  Data: 0x00 0x00 0x00 0x00 0x00 0x00 0x00 0x00
Standard ID: 0x0F1       DLC: 6  Data: 0x28 0x00 0x00 0x40 0x00 0x00
Standard ID: 0x0D3       DLC: 8  Data: 0x2B 0xBC 0x00 0x07 0x00 0x10 0x00 0x00
Standard ID: 0x0C1       DLC: 8  Data: 0xB0 0x01 0x1F 0xE8 0x30 0x00 0x00 0x00
Standard ID: 0x0D3       DLC: 8  Data: 0x2B 0xBC 0x00 0x0A 0x00 0x10 0x00 0x00
Standard ID: 0x362       DLC: 4  Data: 0x00 0x00 0x00 0x00
Standard ID: 0x0C5       DLC: 8  Data: 0x30 0x00 0x00 0x00 0x30 0x00 0x00 0x00
Standard ID: 0x1E1       DLC: 7  Data: 0x00 0x00 0x04 0x00 0x00 0x0C 0xD0
Standard ID: 0x0F1       DLC: 6  Data: 0x34 0x00 0x00 0x40 0x00 0x00
Standard ID: 0x0C1       DLC: 8  Data: 0x80 0x01 0x1F 0xE8 0x00 0x00 0x00 0x00
Standard ID: 0x0C5       DLC: 8  Data: 0x00 0x00 0x00 0x00 0x00 0x00 0x00 0x00
Standard ID: 0x1CE       DLC: 4  Data: 0x10 0x00 0x07 0xFE
Standard ID: 0x0C9       DLC: 8  Data: 0x00 0x00 0x00 0x0D 0x00 0x10 0x00 0x00
Standard ID: 0x1A1       DLC: 8  Data: 0x00 0x00 0x40 0x00 0x89 0x66 0x00 0x00
Standard ID: 0x1F4       DLC: 8  Data: 0x00 0x00 0x00 0x00 0x00 0x00 0x00 0x00
Standard ID: 0x0D1       DLC: 7  Data: 0x00 0x00 0x3F 0xFC 0x00 0xFC 0x00
Standard ID: 0x0F1       DLC: 6  Data: 0x00 0x00 0x00 0x40 0x00 0x00
Standard ID: 0x0C5       DLC: 8  Data: 0x10 0x00 0x00 0x00 0x10 0x00 0x00 0x00
Standard ID: 0x0C1       DLC: 8  Data: 0x90 0x01 0x1F 0xE8 0x10 0x00 0x00 0x00
Standard ID: 0x3CB       DLC: 6  Data: 0x31 0x45 0x00 0x00 0x14 0xF7
Standard ID: 0x0C9       DLC: 8  Data: 0x00 0x00 0x00 0x00 0x00 0x10 0x00 0x00
Standard ID: 0x0D3       DLC: 8  Data: 0x2B 0xBC 0x00 0x00 0x00 0x10 0x00 0x00
Standard ID: 0x0F1       DLC: 6  Data: 0x1C 0x00 0x00 0x40 0x00 0x00
Standard ID: 0x0C1       DLC: 8  Data: 0xA0 0x01 0x1F 0xE8 0x20 0x00 0x00 0x00
Standard ID: 0x0D1       DLC: 7  Data: 0x80 0x00 0xBF 0xFA 0x00 0xFA 0x00
Standard ID: 0x1E1       DLC: 7  Data: 0x00 0x00 0x04 0x00 0x01 0x00 0x00
Standard ID: 0x1F3       DLC: 3  Data: 0x40 0x7C 0x00
Standard ID: 0x3E7       DLC: 2  Data: 0x00 0x65
Standard ID: 0x451       DLC: 6  Data: 0x00 0x00 0x00 0x00 0x00 0x00
Standard ID: 0x0C9       DLC: 8  Data: 0x00 0x00 0x00 0x07 0x00 0x10 0x00 0x00
Standard ID: 0x0F1       DLC: 6  Data: 0x28 0x00 0x00 0x40 0x00 0x00
Standard ID: 0x0C5       DLC: 8  Data: 0x30 0x00 0x00 0x00 0x30 0x00 0x00 0x00
Standard ID: 0x1E5       DLC: 8  Data: 0x44 0x00 0x39 0x50 0x00 0x00 0x01 0x09
Standard ID: 0x3C1       DLC: 8  Data: 0x07 0x65 0x14 0x00 0x00 0x00 0x00 0x00
Standard ID: 0x0D3       DLC: 8  Data: 0x2B 0xBC 0x00 0x07 0x00 0x10 0x00 0x00
Standard ID: 0x0F1       DLC: 6  Data: 0x34 0x00 0x00 0x40 0x00 0x00
Standard ID: 0x0C1       DLC: 8  Data: 0x80 0x01 0x1F 0xE8 0x00 0x00 0x00 0x00
Standard ID: 0x0C5       DLC: 8  Data: 0x00 0x00 0x00 0x00 0x00 0x00 0x00 0x00
Standard ID: 0x0F9       DLC: 8  Data: 0x00 0x00 0x00 0x00 0x00 0x00 0x00 0x00
Standard ID: 0x214       DLC: 6  Data: 0x06 0x00 0x01 0xFD 0x0C 0x01
Standard ID: 0x17D       DLC: 6  Data: 0x22 0x24 0x42 0xFF 0x00 0x00
Standard ID: 0x0D1       DLC: 7  Data: 0x00 0x00 0x00 0x00 0x00 0x00 0x00
Standard ID: 0x0F1       DLC: 6  Data: 0x00 0x00 0x00 0x40 0x00 0x00
Standard ID: 0x0C1       DLC: 8  Data: 0x90 0x01 0x1F 0xE8 0x10 0x00 0x00 0x00
Standard ID: 0x0C5       DLC: 8  Data: 0x10 0x00 0x00 0x00 0x10 0x00 0x00 0x00
Standard ID: 0x0D1       DLC: 7  Data: 0x40 0x00 0x7F 0xFF 0x00 0xFF 0x00
Standard ID: 0x0C9       DLC: 8  Data: 0x00 0x00 0x00 0x0D 0x00 0x10 0x00 0x00
Standard ID: 0x1A1       DLC: 8  Data: 0x00 0x00 0x40 0x00 0x89 0x66 0x00 0x00
Standard ID: 0x1F3       DLC: 3  Data: 0x80 0xBC 0x00
Standard ID: 0x0F1       DLC: 6  Data: 0x1C 0x00 0x00 0x40 0x00 0x00
Standard ID: 0x0C1       DLC: 8  Data: 0xA0 0x01 0x1F 0xE8 0x20 0x00 0x00 0x00
Standard ID: 0x0C5       DLC: 8  Data: 0x20 0x00 0x00 0x00 0x20 0x00 0x00 0x00
Standard ID: 0x1CE       DLC: 4  Data: 0x08 0x00 0x07 0xFF
Standard ID: 0x0D1       DLC: 7  Data: 0x80 0x00 0xBF 0xFE 0x00 0xFE 0x00
Standard ID: 0x0C9       DLC: 8  Data: 0x00 0x00 0x00 0x00 0x00 0x10 0x00 0xFF
Standard ID: 0x0D3       DLC: 8  Data: 0x2B 0xBC 0x00 0x00 0x00 0x10 0x00 0xFF
Standard ID: 0x0F1       DLC: 6  Data: 0x28 0x00 0x00 0x40 0x00 0x00
Standard ID: 0x0C1       DLC: 8  Data: 0xB0 0x01 0x1F 0xE8 0x30 0x00 0x00 0x00
Standard ID: 0x0D1       DLC: 7  Data: 0xC0 0x00 0xFF 0xFD 0x00 0xFD 0x00
Standard ID: 0x0F9       DLC: 8  Data: 0x00 0x00 0x00 0x00 0x00 0x00 0x00 0x00
Standard ID: 0x0C9       DLC: 8  Data: 0x00 0x00 0x00 0x07 0x00 0x10 0x00 0xFF
Standard ID: 0x0F1       DLC: 6  Data: 0x34 0x00 0x00 0x40 0x00 0x00
Standard ID: 0x0C5       DLC: 8  Data: 0x00 0x00 0x00 0x00 0x00 0x00 0x00 0x00
Standard ID: 0x1C4       DLC: 8  Data: 0x4A 0x62 0xC0 0xC7 0x04 0x00 0x05 0xFE
Standard ID: 0x1E9       DLC: 8  Data: 0x0F 0xF0 0x00 0x06 0x00 0x08 0x00 0x00
Standard ID: 0x2D3       DLC: 8  Data: 0x00 0x00 0x00 0x00 0x00 0x00 0x00 0x00
Standard ID: 0x137       DLC: 8  Data: 0x00 0x00 0x00 0x00 0x00 0x00 0x00 0x00
Standard ID: 0x0F1       DLC: 6  Data: 0x00 0x00 0x00 0x40 0x00 0x00
Standard ID: 0x0D3       DLC: 8  Data: 0x2B 0xBC 0x00 0x07 0x00 0x10 0x00 0xFF
Standard ID: 0x0C1       DLC: 8  Data: 0x90 0x01 0x1F 0xE8 0x10 0x00 0x00 0x00
Standard ID: 0x0D3       DLC: 8  Data: 0x2B 0xBC 0x00 0x0A 0x00 0x10 0x00 0xFF
Standard ID: 0x362       DLC: 4  Data: 0x00 0x00 0x00 0x00
Standard ID: 0x0C5       DLC: 8  Data: 0x10 0x00 0x00 0x00 0x10 0x00 0x00 0x00
Standard ID: 0x1E1       DLC: 7  Data: 0x00 0x00 0x04 0x00 0x03 0x08 0xE0
Standard ID: 0x0F1       DLC: 6  Data: 0x1C 0x00 0x00 0x40 0x00 0x00
Standard ID: 0x0C1       DLC: 8  Data: 0xA0 0x01 0x1F 0xE8 0x20 0x00 0x00 0x00
Standard ID: 0x0C5       DLC: 8  Data: 0x20 0x00 0x00 0x00 0x20 0x00 0x00 0x00
Standard ID: 0x1CE       DLC: 4  Data: 0x18 0x00 0x07 0xFD
Standard ID: 0x0C9       DLC: 8  Data: 0x00 0x00 0x00 0x0D 0x00 0x10 0x00 0xFF
Standard ID: 0x1A1       DLC: 8  Data: 0x00 0x00 0x40 0x00 0x89 0x66 0x00 0x00
Standard ID: 0x1F4       DLC: 8  Data: 0x00 0x00 0x00 0x00 0x00 0x00 0x00 0x00
Standard ID: 0x0F1       DLC: 6  Data: 0x28 0x00 0x00 0x40 0x00 0x00
Standard ID: 0x0D1       DLC: 7  Data: 0x80 0x00 0xBF 0xFA 0x00 0xFA 0x00
Standard ID: 0x0C1       DLC: 8  Data: 0xB0 0x01 0x1F 0xE8 0x30 0x00 0x00 0x00
Standard ID: 0x0C5       DLC: 8  Data: 0x30 0x00 0x00 0x00 0x30 0x00 0x00 0x00
Standard ID: 0x1F3       DLC: 3  Data: 0x00 0x3C 0x00
Standard ID: 0x0C9       DLC: 8  Data: 0x00 0x00 0x00 0x00 0x00 0x10 0x00 0xFF
Standard ID: 0x3C9       DLC: 8  Data: 0x07 0x66 0x00 0x00 0x00 0x00 0x00 0x00
Standard ID: 0x0F1       DLC: 6  Data: 0x34 0x00 0x00 0x40 0x00 0x00
Standard ID: 0x0C1       DLC: 8  Data: 0x80 0x01 0x1F 0xE8 0x00 0x00 0x00 0x00
Standard ID: 0x0D1       DLC: 7  Data: 0x00 0x00 0x00 0x00 0x00 0x00 0x00
Standard ID: 0x1E9       DLC: 8  Data: 0x0F 0xF0 0x00 0x06 0x00 0x08 0x00 0x00
Standard ID: 0x3E7       DLC: 2  Data: 0x00 0x65
Standard ID: 0x0D3       DLC: 8  Data: 0x2B 0xBC 0x00 0x00 0x00 0x10 0x00 0xFF
Standard ID: 0x451       DLC: 6  Data: 0x00 0x00 0x00 0x00 0x00 0x00
Standard ID: 0x0C9       DLC: 8  Data: 0x00 0x00 0x00 0x07 0x00 0x10 0x00 0xFF
Standard ID: 0x0F1       DLC: 6  Data: 0x00 0x00 0x00 0x40 0x00 0x00
Standard ID: 0x0C5       DLC: 8  Data: 0x10 0x00 0x00 0x00 0x10 0x00 0x00 0x00
Standard ID: 0x1E5       DLC: 8  Data: 0x44 0x00 0x39 0x10 0x00 0x00 0x00 0xC9
Standard ID: 0x2D3       DLC: 8  Data: 0x00 0x00 0x00 0x00 0x00 0x00 0x00 0x00
Standard ID: 0x3FC       DLC: 8  Data: 0x40 0x49 0x1E 0x6E 0x6E 0x00 0x6E 0x6E
Standard ID: 0x0D3       DLC: 8  Data: 0x2B 0xBC 0x00 0x07 0x00 0x10 0x00 0xFF
Standard ID: 0x0F1       DLC: 6  Data: 0x1C 0x00 0x00 0x40 0x00 0x00
Standard ID: 0x0C1       DLC: 8  Data: 0xA0 0x01 0x1F 0xE8 0x20 0x00 0x00 0x00
Standard ID: 0x0C5       DLC: 8  Data: 0x20 0x00 0x00 0x00 0x20 0x00 0x00 0x00
Standard ID: 0x1E5       DLC: 8  Data: 0x44 0x00 0x39 0x30 0x00 0x00 0x00 0xE9
Standard ID: 0x232       DLC: 7  Data: 0x00 0x00 0x00 0x00 0x00 0x00 0x00
Standard ID: 0x365       DLC: 4  Data: 0x00 0x00 0x00 0x00
Standard ID: 0x0D1       DLC: 7  Data: 0x80 0x00 0xBF 0xFE 0x00 0xFE 0x00
Standard ID: 0x0F1       DLC: 6  Data: 0x28 0x00 0x00 0x40 0x00 0x00
Standard ID: 0x0C1       DLC: 8  Data: 0xB0 0x01 0x1F 0xE8 0x30 0x00 0x00 0x00
Standard ID: 0x0C5       DLC: 8  Data: 0x30 0x00 0x00 0x00 0x30 0x00 0x00 0x00
Standard ID: 0x0D1       DLC: 7  Data: 0xC0 0x00 0xFF 0xFD 0x00 0xFD 0x00
Standard ID: 0x0C9       DLC: 8  Data: 0x00 0x00 0x00 0x0D 0x00 0x10 0x00 0xFF
Standard ID: 0x1A1       DLC: 8  Data: 0x00 0x00 0x40 0x00 0x89 0x66 0x00 0x00
Standard ID: 0x1F5       DLC: 8  Data: 0xED 0x00 0x00 0x0F 0x18 0x00 0x03 0x1C
Standard ID: 0x0F1       DLC: 6  Data: 0x34 0x00 0x00 0x40 0x00 0x00
Standard ID: 0x0C1       DLC: 8  Data: 0x80 0x01 0x1F 0xE8 0x00 0x00 0x00 0x00
Standard ID: 0x0D1       DLC: 7  Data: 0x00 0x00 0x3F 0xFC 0x00 0xFC 0x00
Standard ID: 0x1E9       DLC: 8  Data: 0x0F 0xF6 0x00 0x06 0x00 0x08 0x00 0x00
Standard ID: 0x0D3       DLC: 8  Data: 0x2B 0xBC 0x00 0x0D 0x00 0x10 0x00 0xFF
Standard ID: 0x0C9       DLC: 8  Data: 0x00 0x00 0x00 0x00 0x00 0x10 0x00 0xFF
Standard ID: 0x0F9       DLC: 8  Data: 0x00 0x00 0x00 0x00 0x00 0x00 0x00 0x00
Standard ID: 0x0F1       DLC: 6  Data: 0x00 0x00 0x00 0x40 0x00 0x00
Standard ID: 0x0C1       DLC: 8  Data: 0x90 0x01 0x1F 0xE8 0x10 0x00 0x00 0x00
Standard ID: 0x1C8       DLC: 8  Data: 0x00 0x00 0x00 0x00 0x00 0x00 0x00 0x00
Standard ID: 0x0D3       DLC: 8  Data: 0x2B 0xBC 0x00 0x00 0x00 0x10 0x00 0xFF
Standard ID: 0x1F3       DLC: 3  Data: 0x80 0xBC 0x00
Standard ID: 0x0C9       DLC: 8  Data: 0x00 0x00 0x00 0x07 0x00 0x10 0x00 0xFF
Standard ID: 0x0F1       DLC: 6  Data: 0x1C 0x00 0x00 0x40 0x00 0x00
Standard ID: 0x0C5       DLC: 8  Data: 0x20 0x00 0x00 0x00 0x20 0x00 0x00 0x00
Standard ID: 0x1C4       DLC: 8  Data: 0x4A 0x62 0xC0 0xC7 0x04 0x00 0x05 0xFE
Standard ID: 0x1E9       DLC: 8  Data: 0x0F 0xF6 0x00 0x06 0x00 0x08 0x00 0x00
Standard ID: 0x2D3       DLC: 8  Data: 0x00 0x00 0x00 0x00 0x00 0x00 0x00 0x00
Standard ID: 0x137       DLC: 8  Data: 0x00 0x00 0x00 0x00 0x00 0x00 0x00 0x00
Standard ID: 0x0F1       DLC: 6  Data: 0x28 0x00 0x00 0x40 0x00 0x00
Standard ID: 0x0D3       DLC: 8  Data: 0x2B 0xBC 0x00 0x07 0x00 0x10 0x00 0xFF
Standard ID: 0x0C1       DLC: 8  Data: 0xB0 0x01 0x1F 0xE8 0x30 0x00 0x00 0x00
Standard ID: 0x0D3       DLC: 8  Data: 0x2B 0xBC 0x00 0x0A 0x00 0x10 0x00 0xFF
Standard ID: 0x362       DLC: 4  Data: 0x00 0x00 0x00 0x00
Standard ID: 0x0C5       DLC: 8  Data: 0x30 0x00 0x00 0x00 0x30 0x00 0x00 0x00
Standard ID: 0x1F1       DLC: 8  Data: 0x80 0x0E 0x00 0x00 0x18 0x00 0x00 0x72
Standard ID: 0x0F1       DLC: 6  Data: 0x34 0x00 0x00 0x40 0x00 0x00
Standard ID: 0x0C1       DLC: 8  Data: 0x80 0x01 0x1F 0xE8 0x00 0x00 0x00 0x00
Standard ID: 0x0C5       DLC: 8  Data: 0x00 0x00 0x00 0x00 0x00 0x00 0x00 0x00
Standard ID: 0x1CE       DLC: 4  Data: 0x00 0x00 0x00 0x00
Standard ID: 0x0C9       DLC: 8  Data: 0x00 0x00 0x00 0x0D 0x00 0x10 0x00 0xFF
Standard ID: 0x1A1       DLC: 8  Data: 0x00 0x00 0x40 0x00 0x89 0x66 0x00 0x00
Standard ID: 0x1F4       DLC: 8  Data: 0x00 0x00 0x00 0x00 0x00 0x00 0x00 0x00
Standard ID: 0x0F1       DLC: 6  Data: 0x00 0x00 0x00 0x40 0x00 0x00
Standard ID: 0x0D1       DLC: 7  Data: 0x00 0x00 0x00 0x00 0x00 0x00 0x00
Standard ID: 0x0C1       DLC: 8  Data: 0x90 0x01 0x1F 0xE8 0x10 0x00 0x00 0x00
Standard ID: 0x0C5       DLC: 8  Data: 0x10 0x00 0x00 0x00 0x10 0x00 0x00 0x00
Standard ID: 0x3CB       DLC: 6  Data: 0x31 0x48 0x00 0x00 0x15 0x0E
Standard ID: 0x0C9       DLC: 8  Data: 0x00 0x00 0x00 0x00 0x00 0x10 0x00 0xFF
Standard ID: 0x0D3       DLC: 8  Data: 0x2B 0xBC 0x00 0x00 0x00 0x10 0x00 0xFF
Standard ID: 0x0F1       DLC: 6  Data: 0x1C 0x00 0x00 0x40 0x00 0x00
Standard ID: 0x0C1       DLC: 8  Data: 0xA0 0x01 0x1F 0xE8 0x20 0x00 0x00 0x00
Standard ID: 0x0D1       DLC: 7  Data: 0x80 0x00 0xBF 0xFE 0x00 0xFE 0x00
Standard ID: 0x1E9       DLC: 8  Data: 0x0F 0xF6 0x00 0x06 0x00 0x08 0x00 0x00
Standard ID: 0x3E7       DLC: 2  Data: 0x00 0x65
Standard ID: 0x0C9       DLC: 8  Data: 0x00 0x00 0x00 0x07 0x00 0x10 0x00 0xFF
Standard ID: 0x0F1       DLC: 6  Data: 0x28 0x00 0x00 0x40 0x00 0x00
Standard ID: 0x0C5       DLC: 8  Data: 0x30 0x00 0x00 0x00 0x30 0x00 0x00 0x00
Standard ID: 0x1E1       DLC: 7  Data: 0x00 0x00 0x04 0x00 0x00 0x0C 0xD0
Standard ID: 0x2D3       DLC: 8  Data: 0x00 0x00 0x00 0x00 0x00 0x00 0x00 0x00
Standard ID: 0x0D3       DLC: 8  Data: 0x2B 0xBC 0x00 0x07 0x00 0x10 0x00 0xFF
Standard ID: 0x451       DLC: 6  Data: 0x00 0x00 0x00 0x00 0x00 0x00
Standard ID: 0x0F1       DLC: 6  Data: 0x34 0x00 0x00 0x40 0x00 0x00
Standard ID: 0x0C1       DLC: 8  Data: 0x80 0x01 0x1F 0xE8 0x00 0x00 0x00 0x00
Standard ID: 0x0C5       DLC: 8  Data: 0x00 0x00 0x00 0x00 0x00 0x00 0x00 0x00
Standard ID: 0x1C6       DLC: 8  Data: 0x00 0x00 0x00 0x00 0x00 0x83 0xFF 0xFE
Standard ID: 0x214       DLC: 6  Data: 0x06 0x00 0x01 0xFD 0x0C 0x01
Standard ID: 0x17D       DLC: 6  Data: 0x22 0x24 0x42 0xFF 0x00 0x00
Standard ID: 0x0D1       DLC: 7  Data: 0x00 0x00 0x3F 0xFC 0x00 0xFC 0x00
Standard ID: 0x0F1       DLC: 6  Data: 0x00 0x00 0x00 0x40 0x00 0x00
Standard ID: 0x0C1       DLC: 8  Data: 0x90 0x01 0x1F 0xE8 0x10 0x00 0x00 0x00
Standard ID: 0x0C5       DLC: 8  Data: 0x10 0x00 0x00 0x00 0x10 0x00 0x00 0x00
Standard ID: 0x0D1       DLC: 7  Data: 0x40 0x00 0x7F 0xFB 0x00 0xFB 0x00
Standard ID: 0x0C9       DLC: 8  Data: 0x00 0x00 0x00 0x0D 0x00 0x10 0x00 0xFF
Standard ID: 0x1A3       DLC: 8  Data: 0x00 0x00 0x00 0x00 0x00 0x00 0x00 0x00
Standard ID: 0x0D3       DLC: 8  Data: 0x2B 0xBC 0x00 0x0D 0x00 0x10 0x00 0xFF
Standard ID: 0x0F1       DLC: 6  Data: 0x1C 0x00 0x00 0x40 0x00 0x00
Standard ID: 0x0C1       DLC: 8  Data: 0xA0 0x01 0x1F 0xE8 0x20 0x00 0x00 0x00
Standard ID: 0x0D1       DLC: 7  Data: 0x80 0x00 0xBF 0xFA 0x00 0xFA 0x00
Standard ID: 0x1E1       DLC: 7  Data: 0x00 0x00 0x04 0x00 0x01 0x00 0x00
Standard ID: 0x1F3       DLC: 3  Data: 0x40 0x7C 0x00
Standard ID: 0x0C5       DLC: 8  Data: 0x20 0x00 0x00 0x00 0x20 0x00 0x00 0x00
Standard ID: 0x0C9       DLC: 8  Data: 0x00 0x00 0x00 0x00 0x00 0x10 0x00 0xFF
Standard ID: 0x0F1       DLC: 6  Data: 0x28 0x00 0x00 0x40 0x00 0x00
Standard ID: 0x451       DLC: 6  Data: 0x00 0x00 0x00 0x00 0x00 0x00
Standard ID: 0x0C1       DLC: 8  Data: 0xB0 0x01 0x1F 0xE8 0x30 0x00 0x00 0x00
Standard ID: 0x0C5       DLC: 8  Data: 0x30 0x00 0x00 0x00 0x30 0x00 0x00 0x00
Standard ID: 0x0C9       DLC: 8  Data: 0x00 0x00 0x00 0x07 0x00 0x10 0x00 0xFF
Standard ID: 0x0F1       DLC: 6  Data: 0x34 0x00 0x00 0x40 0x00 0x00
Standard ID: 0x0C5       DLC: 8  Data: 0x00 0x00 0x00 0x00 0x00 0x00 0x00 0x00
Standard ID: 0x1C4       DLC: 8  Data: 0x4A 0x62 0xC0 0xC7 0x04 0x00 0x05 0xFE
Standard ID: 0x1E9       DLC: 8  Data: 0x0F 0xF0 0x00 0x06 0x00 0x08 0x00 0x00
Standard ID: 0x2D3       DLC: 8  Data: 0x00 0x00 0x00 0x00 0x00 0x00 0x00 0x00
Standard ID: 0x137       DLC: 8  Data: 0x00 0x00 0x00 0x00 0x00 0x00 0x00 0x00
Standard ID: 0x0F1       DLC: 6  Data: 0x00 0x00 0x00 0x40 0x00 0x00
Standard ID: 0x0D3       DLC: 8  Data: 0x2B 0xBC 0x00 0x07 0x00 0x10 0x00 0xFF
Standard ID: 0x0C1       DLC: 8  Data: 0x90 0x01 0x1F 0xE8 0x10 0x00 0x00 0x00
Standard ID: 0x0D3       DLC: 8  Data: 0x2B 0xBC 0x00 0x0A 0x00 0x10 0x00 0xFF
Standard ID: 0x362       DLC: 4  Data: 0x00 0x00 0x00 0x00
Standard ID: 0x0C5       DLC: 8  Data: 0x10 0x00 0x00 0x00 0x10 0x00 0x00 0x00
Standard ID: 0x1E1       DLC: 7  Data: 0x00 0x00 0x04 0x00 0x02 0x04 0xF0
Standard ID: 0x0F1       DLC: 6  Data: 0x1C 0x00 0x00 0x40 0x00 0x00
Standard ID: 0x0C1       DLC: 8  Data: 0xA0 0x01 0x1F 0xE8 0x20 0x00 0x00 0x00
Standard ID: 0x0C5       DLC: 8  Data: 0x20 0x00 0x00 0x00 0x20 0x00 0x00 0x00
Standard ID: 0x1CE       DLC: 4  Data: 0x08 0x00 0x07 0xFF
Standard ID: 0x0C9       DLC: 8  Data: 0x00 0x00 0x00 0x0D 0x00 0x10 0x00 0xFF
Standard ID: 0x1A1       DLC: 8  Data: 0x00 0x00 0x40 0x00 0x89 0x66 0x00 0x00
Standard ID: 0x1F4       DLC: 8  Data: 0x00 0x00 0x00 0x00 0x00 0x00 0x00 0x00
Standard ID: 0x0F1       DLC: 6  Data: 0x28 0x00 0x00 0x40 0x00 0x00
Standard ID: 0x0D1       DLC: 7  Data: 0x80 0x00 0xBF 0xFE 0x00 0xFE 0x00
Standard ID: 0x0C1       DLC: 8  Data: 0xB0 0x01 0x1F 0xE8 0x30 0x00 0x00 0x00
Standard ID: 0x0C5       DLC: 8  Data: 0x30 0x00 0x00 0x00 0x30 0x00 0x00 0x00
Standard ID: 0x3CB       DLC: 6  Data: 0x31 0x48 0x00 0x00 0x15 0x0E
Standard ID: 0x0C9       DLC: 8  Data: 0x00 0x00 0x00 0x00 0x00 0x10 0x00 0xFF
Standard ID: 0x0D3       DLC: 8  Data: 0x2B 0xBC 0x00 0x00 0x00 0x10 0x00 0xFF
Standard ID: 0x0F1       DLC: 6  Data: 0x34 0x00 0x00 0x40 0x00 0x00
Standard ID: 0x0C1       DLC: 8  Data: 0x80 0x01 0x1F 0xE8 0x00 0x00 0x00 0x00
Standard ID: 0x0D1       DLC: 7  Data: 0x00 0x00 0x3F 0xFC 0x00 0xFC 0x00
Standard ID: 0x1E1       DLC: 7  Data: 0x00 0x00 0x04 0x00 0x03 0x08 0xE0
Standard ID: 0x1F3       DLC: 3  Data: 0xC0 0xFC 0x00
Standard ID: 0x3E7       DLC: 2  Data: 0x00 0x65
Standard ID: 0x451       DLC: 6  Data: 0x00 0x00 0x00 0x00 0x00 0x00
Standard ID: 0x0C9       DLC: 8  Data: 0x00 0x00 0x00 0x07 0x00 0x10 0x00 0xFF
Standard ID: 0x0F1       DLC: 6  Data: 0x00 0x00 0x00 0x40 0x00 0x00
Standard ID: 0x0C5       DLC: 8  Data: 0x10 0x00 0x00 0x00 0x10 0x00 0x00 0x00
Standard ID: 0x1E5       DLC: 8  Data: 0x44 0x00 0x39 0x10 0x00 0x00 0x00 0xC9
Standard ID: 0x3C1       DLC: 8  Data: 0x07 0x65 0x14 0x00 0x00 0x00 0x00 0x00
Standard ID: 0x0D3       DLC: 8  Data: 0x2B 0xBC 0x00 0x07 0x00 0x10 0x00 0xFF
Standard ID: 0x0F1       DLC: 6  Data: 0x1C 0x00 0x00 0x40 0x00 0x00
Standard ID: 0x0C1       DLC: 8  Data: 0xA0 0x01 0x1F 0xE8 0x20 0x00 0x00 0x00
Standard ID: 0x0C5       DLC: 8  Data: 0x20 0x00 0x00 0x00 0x20 0x00 0x00 0x00
Standard ID: 0x1C6       DLC: 8  Data: 0x00 0x00 0x00 0x00 0x00 0xC3 0xFF 0xFD
Standard ID: 0x214       DLC: 6  Data: 0x02 0x00 0x01 0xFF 0x04 0x03
Standard ID: 0x17D       DLC: 6  Data: 0x22 0x24 0x42 0xFF 0x00 0x00
Standard ID: 0x0D1       DLC: 7  Data: 0x80 0x00 0xBF 0xFA 0x00 0xFA 0x00
Standard ID: 0x0F1       DLC: 6  Data: 0x28 0x00 0x00 0x40 0x00 0x00
Standard ID: 0x0C1       DLC: 8  Data: 0xB0 0x01 0x1F 0xE8 0x30 0x00 0x00 0x00
Standard ID: 0x0C5       DLC: 8  Data: 0x30 0x00 0x00 0x00 0x30 0x00 0x00 0x00
Standard ID: 0x0D1       DLC: 7  Data: 0xC0 0x00 0xFF 0xF9 0x00 0xF9 0x00
Standard ID: 0x0C9       DLC: 8  Data: 0x00 0x00 0x00 0x0D 0x00 0x10 0x00 0xFF
Standard ID: 0x1A1       DLC: 8  Data: 0x00 0x00 0x40 0x00 0x89 0x66 0x00 0x00
Standard ID: 0x1F5       DLC: 8  Data: 0xED 0x00 0x00 0x0F 0x18 0x00 0x03 0x1C
Standard ID: 0x0F1       DLC: 6  Data: 0x34 0x00 0x00 0x40 0x00 0x00
Standard ID: 0x0C1       DLC: 8  Data: 0x80 0x01 0x1F 0xE8 0x00 0x00 0x00 0x00
Standard ID: 0x0D1       DLC: 7  Data: 0x00 0x00 0x00 0x00 0x00 0x00 0x00
Standard ID: 0x1E9       DLC: 8  Data: 0x0F 0xF6 0x00 0x06 0x00 0x08 0x00 0x00
Standard ID: 0x1F3       DLC: 3  Data: 0x00 0x3C 0x00
Standard ID: 0x0C9       DLC: 8  Data: 0x00 0x00 0x00 0x00 0x00 0x10 0x00 0xFF
Standard ID: 0x0D3       DLC: 8  Data: 0x2B 0xBC 0x00 0x00 0x00 0x10 0x00 0xFF
Standard ID: 0x0F1       DLC: 6  Data: 0x00 0x00 0x00 0x40 0x00 0x00
Standard ID: 0x0C1       DLC: 8  Data: 0x90 0x01 0x1F 0xE8 0x10 0x00 0x00 0x00
Standard ID: 0x0D1       DLC: 7  Data: 0x40 0x00 0x7F 0xFF 0x00 0xFF 0x00
Standard ID: 0x0F9       DLC: 8  Data: 0x00 0x00 0x00 0x00 0x00 0x00 0x00 0x00
Standard ID: 0x0C9       DLC: 8  Data: 0x00 0x00 0x00 0x07 0x00 0x10 0x00 0xFF
Standard ID: 0x0F1       DLC: 6  Data: 0x1C 0x00 0x00 0x40 0x00 0x00
Standard ID: 0x0C5       DLC: 8  Data: 0x20 0x00 0x00 0x00 0x20 0x00 0x00 0x00
Standard ID: 0x1C4       DLC: 8  Data: 0x4A 0x62 0xC0 0xC7 0x04 0x00 0x05 0xFE
Standard ID: 0x1E9       DLC: 8  Data: 0x0F 0xF0 0x00 0x06 0x00 0x08 0x00 0x00
Standard ID: 0x2D3       DLC: 8  Data: 0x00 0x00 0x00 0x00 0x00 0x00 0x00 0x00
Standard ID: 0x137       DLC: 8  Data: 0x00 0x00 0x00 0x00 0x00 0x00 0x00 0x00
Standard ID: 0x0F1       DLC: 6  Data: 0x28 0x00 0x00 0x40 0x00 0x00
Standard ID: 0x0D3       DLC: 8  Data: 0x2B 0xBC 0x00 0x07 0x00 0x10 0x00 0xFF
Standard ID: 0x0C1       DLC: 8  Data: 0xB0 0x01 0x1F 0xE8 0x30 0x00 0x00 0x00
Standard ID: 0x1E5       DLC: 8  Data: 0x44 0x00 0x39 0x50 0x00 0x00 0x01 0x09
Standard ID: 0x362       DLC: 4  Data: 0x00 0x00 0x00 0x00
Standard ID: 0x0C5       DLC: 8  Data: 0x30 0x00 0x00 0x00 0x30 0x00 0x00 0x00
Standard ID: 0x160       DLC: 5  Data: 0x00 0x00 0x00 0x00 0x00
Standard ID: 0x0F1       DLC: 6  Data: 0x34 0x00 0x00 0x40 0x00 0x00
Standard ID: 0x0C1       DLC: 8  Data: 0x80 0x01 0x1F 0xE8 0x00 0x00 0x00 0x00
Standard ID: 0x0C5       DLC: 8  Data: 0x00 0x00 0x00 0x00 0x00 0x00 0x00 0x00
Standard ID: 0x1CE       DLC: 4  Data: 0x10 0x00 0x07 0xFE
Standard ID: 0x0C9       DLC: 8  Data: 0x00 0x00 0x00 0x0D 0x00 0x10 0x00 0xFF
Standard ID: 0x0F9       DLC: 8  Data: 0x00 0x00 0x00 0x00 0x00 0x00 0x00 0x00
Standard ID: 0x1F4       DLC: 8  Data: 0x00 0x00 0x00 0x00 0x00 0x00 0x00 0x00
Standard ID: 0x0F1       DLC: 6  Data: 0x00 0x00 0x00 0x40 0x00 0x00
Standard ID: 0x0D1       DLC: 7  Data: 0x00 0x00 0x3F 0xFC 0x00 0xFC 0x00
Standard ID: 0x0C1       DLC: 8  Data: 0x90 0x01 0x1F 0xE8 0x10 0x00 0x00 0x00
Standard ID: 0x0C5       DLC: 8  Data: 0x10 0x00 0x00 0x00 0x10 0x00 0x00 0x00
Standard ID: 0x32A       DLC: 8  Data: 0x00 0x00 0x00 0x00 0x00 0x00 0x00 0x00
Standard ID: 0x0C9       DLC: 8  Data: 0x00 0x00 0x00 0x00 0x00 0x10 0x00 0xFF
Standard ID: 0x3C9       DLC: 8  Data: 0x07 0x66 0x00 0x00 0x00 0x00 0x00 0x00
Standard ID: 0x0F1       DLC: 6  Data: 0x1C 0x00 0x00 0x40 0x00 0x00
Standard ID: 0x0C1       DLC: 8  Data: 0xA0 0x01 0x1F 0xE8 0x20 0x00 0x00 0x00
Standard ID: 0x0D1       DLC: 7  Data: 0x80 0x00 0xBF 0xFA 0x00 0xFA 0x00
Standard ID: 0x1E9       DLC: 8  Data: 0x0F 0xF0 0x00 0x06 0x00 0x08 0x00 0x00
Standard ID: 0x3CB       DLC: 6  Data: 0x31 0x4A 0x00 0x00 0x15 0x0E
Standard ID: 0x3E7       DLC: 2  Data: 0x00 0x65
Standard ID: 0x0D3       DLC: 8  Data: 0x2B 0xBC 0x00 0x00 0x00 0x10 0x00 0xFF
Standard ID: 0x0C9       DLC: 8  Data: 0x00 0x00 0x00 0x07 0x00 0x10 0x00 0xFF
Standard ID: 0x0F1       DLC: 6  Data: 0x28 0x00 0x00 0x40 0x00 0x00
Standard ID: 0x0C5       DLC: 8  Data: 0x30 0x00 0x00 0x00 0x30 0x00 0x00 0x00
Standard ID: 0x1E5       DLC: 8  Data: 0x44 0x00 0x39 0x50 0x00 0x00 0x01 0x09
Standard ID: 0x2D3       DLC: 8  Data: 0x00 0x00 0x00 0x00 0x00 0x00 0x00 0x00
Standard ID: 0x0D3       DLC: 8  Data: 0x2B 0xBC 0x00 0x07 0x00 0x10 0x00 0xFF
Standard ID: 0x4C5       DLC: 3  Data: 0x00 0x00 0x00
Standard ID: 0x0F1       DLC: 6  Data: 0x34 0x00 0x00 0x40 0x00 0x00
Standard ID: 0x0C1       DLC: 8  Data: 0x80 0x01 0x1F 0xE8 0x00 0x00 0x00 0x00
Standard ID: 0x0C5       DLC: 8  Data: 0x00 0x00 0x00 0x00 0x00 0x00 0x00 0x00
Standard ID: 0x1C6       DLC: 8  Data: 0x00 0x00 0x00 0x00 0x00 0x00 0x00 0x00
Standard ID: 0x232       DLC: 7  Data: 0x00 0x00 0x00 0x00 0x00 0x00 0x00
Standard ID: 0x365       DLC: 4  Data: 0x00 0x00 0x00 0x00
Standard ID: 0x0D1       DLC: 7  Data: 0x00 0x00 0x00 0x00 0x00 0x00 0x00
Standard ID: 0x0F1       DLC: 6  Data: 0x00 0x00 0x00 0x40 0x00 0x00
Standard ID: 0x0C1       DLC: 8  Data: 0x90 0x01 0x1F 0xE8 0x10 0x00 0x00 0x00
Standard ID: 0x0C5       DLC: 8  Data: 0x10 0x00 0x00 0x00 0x10 0x00 0x00 0x00
Standard ID: 0x0D1       DLC: 7  Data: 0x40 0x00 0x7F 0xFF 0x00 0xFF 0x00
Standard ID: 0x4E1       DLC: 8  Data: 0x4B 0x34 0x30 0x32 0x38 0x38 0x31 0x39
Standard ID: 0x1A1       DLC: 8  Data: 0x00 0x00 0x40 0x00 0x89 0x66 0x00 0x00
Standard ID: 0x1F5       DLC: 8  Data: 0xED 0x00 0x00 0x0F 0x18 0x00 0x03 0x1C
Standard ID: 0x0F1       DLC: 6  Data: 0x1C 0x00 0x00 0x40 0x00 0x00
Standard ID: 0x0C1       DLC: 8  Data: 0xA0 0x01 0x1F 0xE8 0x20 0x00 0x00 0x00
Standard ID: 0x0D1       DLC: 7  Data: 0x80 0x00 0xBF 0xFE 0x00 0xFE 0x00
Standard ID: 0x1E9       DLC: 8  Data: 0x0F 0xF0 0x00 0x06 0x00 0x08 0x00 0x00
Standard ID: 0x514       DLC: 8  Data: 0x30 0x56 0x30 0x58 0x45 0x50 0x36 0x38
Standard ID: 0x0C9       DLC: 8  Data: 0x00 0x00 0x00 0x00 0x00 0x10 0x00 0xFF
Standard ID: 0x0D3       DLC: 8  Data: 0x2B 0xBC 0x00 0x00 0x00 0x10 0x00 0xFF
Standard ID: 0x0F1       DLC: 6  Data: 0x28 0x00 0x00 0x40 0x00 0x00
Standard ID: 0x0C1       DLC: 8  Data: 0xB0 0x01 0x1F 0xE8 0x30 0x00 0x00 0x00
Standard ID: 0x1C8       DLC: 8  Data: 0x80 0x00 0x00 0x00 0xFF 0xFE 0x3F 0xFE
Standard ID: 0x0C9       DLC: 8  Data: 0x00 0x00 0x00 0x0D 0x00 0x10 0x00 0xFF
Standard ID: 0x1F3       DLC: 3  Data: 0x00 0x3C 0x00
Standard ID: 0x530       DLC: 4  Data: 0x00 0x00 0x00 0x00
Standard ID: 0x0C9       DLC: 8  Data: 0x00 0x00 0x00 0x07 0x00 0x10 0x00 0xFF
Standard ID: 0x0F1       DLC: 6  Data: 0x34 0x00 0x00 0x40 0x00 0x00
Standard ID: 0x0C5       DLC: 8  Data: 0x00 0x00 0x00 0x00 0x00 0x00 0x00 0x00
Standard ID: 0x1C4       DLC: 8  Data: 0x4A 0x62 0xC0 0xC7 0x04 0x00 0x05 0xFE
Standard ID: 0x1E9       DLC: 8  Data: 0x0F 0xF0 0x00 0x06 0x00 0x08 0x00 0x00
Standard ID: 0x2D3       DLC: 8  Data: 0x00 0x00 0x00 0x00 0x00 0x00 0x00 0x00
Standard ID: 0x137       DLC: 8  Data: 0x00 0x00 0x00 0x00 0x00 0x00 0x00 0x00
Standard ID: 0x0F1       DLC: 6  Data: 0x00 0x00 0x00 0x40 0x00 0x00
Standard ID: 0x0D3       DLC: 8  Data: 0x2B 0xBC 0x00 0x07 0x00 0x10 0x00 0xFF
Standard ID: 0x0C1       DLC: 8  Data: 0x90 0x01 0x1F 0xE8 0x10 0x00 0x00 0x00
Standard ID: 0x0D3       DLC: 8  Data: 0x2B 0xBC 0x00 0x0A 0x00 0x10 0x00 0xFF
Standard ID: 0x365       DLC: 4  Data: 0x00 0x00 0x00 0x00
Standard ID: 0x0C5       DLC: 8  Data: 0x10 0x00 0x00 0x00 0x10 0x00 0x00 0x00
Standard ID: 0x1F1       DLC: 8  Data: 0x80 0x0E 0x00 0x00 0x18 0x00 0x00 0x72
Standard ID: 0x0F1       DLC: 6  Data: 0x1C 0x00 0x00 0x40 0x00 0x00
Standard ID: 0x0C1       DLC: 8  Data: 0xA0 0x01 0x1F 0xE8 0x20 0x00 0x00 0x00
Standard ID: 0x0C5       DLC: 8  Data: 0x20 0x00 0x00 0x00 0x20 0x00 0x00 0x00
Standard ID: 0x1CE       DLC: 4  Data: 0x18 0x00 0x07 0xFD
Standard ID: 0x0C9       DLC: 8  Data: 0x00 0x00 0x00 0x0D 0x00 0x10 0x00 0xFF
Standard ID: 0x1A1       DLC: 8  Data: 0x00 0x00 0x40 0x00 0x89 0x66 0x00 0x00
Standard ID: 0x1F4       DLC: 8  Data: 0x00 0x00 0x00 0x00 0x00 0x00 0x00 0x00
Standard ID: 0x0F1       DLC: 6  Data: 0x28 0x00 0x00 0x40 0x00 0x00
Standard ID: 0x0D1       DLC: 7  Data: 0x80 0x00 0xBF 0xFA 0x00 0xFA 0x00
Standard ID: 0x0C1       DLC: 8  Data: 0xB0 0x01 0x1F 0xE8 0x30 0x00 0x00 0x00
Standard ID: 0x0C5       DLC: 8  Data: 0x30 0x00 0x00 0x00 0x30 0x00 0x00 0x00
Standard ID: 0x3CB       DLC: 6  Data: 0x31 0x4C 0x00 0x00 0x15 0x0E
Standard ID: 0x0C9       DLC: 8  Data: 0x00 0x00 0x00 0x00 0x00 0x10 0x00 0xFF
Standard ID: 0x0D3       DLC: 8  Data: 0x2B 0xBC 0x00 0x00 0x00 0x10 0x00 0xFF
Standard ID: 0x0F1       DLC: 6  Data: 0x34 0x00 0x00 0x40 0x00 0x00
Standard ID: 0x0C1       DLC: 8  Data: 0x80 0x01 0x1F 0xE8 0x00 0x00 0x00 0x00
Standard ID: 0x0D1       DLC: 7  Data: 0x00 0x00 0x00 0x00 0x00 0x00 0x00
Standard ID: 0x1E9       DLC: 8  Data: 0x0F 0xF6 0x00 0x06 0x00 0x08 0x00 0x00
Standard ID: 0x3E7       DLC: 2  Data: 0x00 0x65
Standard ID: 0x0C9       DLC: 8  Data: 0x00 0x00 0x00 0x07 0x00 0x10 0x00 0xFF
Standard ID: 0x0F1       DLC: 6  Data: 0x00 0x00 0x00 0x40 0x00 0x00
Standard ID: 0x0C5       DLC: 8  Data: 0x10 0x00 0x00 0x00 0x10 0x00 0x00 0x00
Standard ID: 0x1E1       DLC: 7  Data: 0x00 0x00 0x04 0x00 0x02 0x04 0xF0
Standard ID: 0x2D3       DLC: 8  Data: 0x00 0x00 0x00 0x00 0x00 0x00 0x00 0x00
Standard ID: 0x0D3       DLC: 8  Data: 0x2B 0xBC 0x00 0x07 0x00 0x10 0x00 0xFF
Standard ID: 0x451       DLC: 6  Data: 0x00 0x00 0x00 0x00 0x00 0x00
Standard ID: 0x0F1       DLC: 6  Data: 0x1C 0x00 0x00 0x40 0x00 0x00
Standard ID: 0x0C1       DLC: 8  Data: 0xA0 0x01 0x1F 0xE8 0x20 0x00 0x00 0x00
Standard ID: 0x0C5       DLC: 8  Data: 0x20 0x00 0x00 0x00 0x20 0x00 0x00 0x00
Standard ID: 0x1C6       DLC: 8  Data: 0x00 0x00 0x00 0x00 0x00 0x43 0xFF 0xFF
Standard ID: 0x214       DLC: 6  Data: 0x02 0x00 0x01 0xFF 0x04 0x03
Standard ID: 0x17D       DLC: 6  Data: 0x22 0x24 0x42 0xFF 0x00 0x00
Standard ID: 0x0D1       DLC: 7  Data: 0x80 0x00 0xBF 0xFE 0x00 0xFE 0x00
Standard ID: 0x0F1       DLC: 6  Data: 0x28 0x00 0x00 0x40 0x00 0x00
Standard ID: 0x0C1       DLC: 8  Data: 0xB0 0x01 0x1F 0xE8 0x30 0x00 0x00 0x00
Standard ID: 0x0C5       DLC: 8  Data: 0x30 0x00 0x00 0x00 0x30 0x00 0x00 0x00
Standard ID: 0x0D1       DLC: 7  Data: 0xC0 0x00 0xFF 0xFD 0x00 0xFD 0x00
Standard ID: 0x0C9       DLC: 8  Data: 0x00 0x00 0x00 0x0D 0x00 0x10 0x00 0xFF
Standard ID: 0x1A1       DLC: 8  Data: 0x00 0x00 0x40 0x00 0x89 0x66 0x00 0x00
Standard ID: 0x1F5       DLC: 8  Data: 0xED 0x00 0x00 0x0F 0x18 0x00 0x03 0x1C
Standard ID: 0x0F1       DLC: 6  Data: 0x34 0x00 0x00 0x40 0x00 0x00
Standard ID: 0x0C1       DLC: 8  Data: 0x80 0x01 0x1F 0xE8 0x00 0x00 0x00 0x00
Standard ID: 0x0D1       DLC: 7  Data: 0x00 0x00 0x3F 0xFC 0x00 0xFC 0x00
Standard ID: 0x1E1       DLC: 7  Data: 0x00 0x00 0x04 0x00 0x03 0x08 0xE0
Standard ID: 0x1F3       DLC: 3  Data: 0xC0 0xFC 0x00
Standard ID: 0x0D3       DLC: 8  Data: 0x2B 0xBC 0x00 0x0D 0x00 0x10 0x00 0xFF
Standard ID: 0x0C9       DLC: 8  Data: 0x00 0x00 0x00 0x00 0x00 0x10 0x00 0xFF
Standard ID: 0x0F1       DLC: 6  Data: 0x00 0x00 0x00 0x40 0x00 0x00
Standard ID: 0x451       DLC: 6  Data: 0x00 0x00 0x00 0x00 0x00 0x00
Standard ID: 0x0C1       DLC: 8  Data: 0x90 0x01 0x1F 0xE8 0x10 0x00 0x00 0x00
Standard ID: 0x0C5       DLC: 8  Data: 0x10 0x00 0x00 0x00 0x10 0x00 0x00 0x00
Standard ID: 0x0C9       DLC: 8  Data: 0x00 0x00 0x00 0x07 0x00 0x10 0x00 0xFF
Standard ID: 0x0F1       DLC: 6  Data: 0x1C 0x00 0x00 0x40 0x00 0x00
Standard ID: 0x0C5       DLC: 8  Data: 0x20 0x00 0x00 0x00 0x20 0x00 0x00 0x00
Standard ID: 0x1C4       DLC: 8  Data: 0x4A 0x62 0xC0 0xC7 0x04 0x00 0x05 0xFE
Standard ID: 0x1E9       DLC: 8  Data: 0x0F 0xF6 0x00 0x06 0x00 0x08 0x00 0x00
Standard ID: 0x2D3       DLC: 8  Data: 0x00 0x00 0x00 0x00 0x00 0x00 0x00 0x00
Standard ID: 0x137       DLC: 8  Data: 0x00 0x00 0x00 0x00 0x00 0x00 0x00 0x00
Standard ID: 0x0F1       DLC: 6  Data: 0x28 0x00 0x00 0x40 0x00 0x00
Standard ID: 0x0D3       DLC: 8  Data: 0x2B 0xBC 0x00 0x07 0x00 0x10 0x00 0xFF
Standard ID: 0x0C1       DLC: 8  Data: 0xB0 0x01 0x1F 0xE8 0x30 0x00 0x00 0x00
Standard ID: 0x0D3       DLC: 8  Data: 0x2B 0xBC 0x00 0x0A 0x00 0x10 0x00 0xFF
Standard ID: 0x365       DLC: 4  Data: 0x00 0x00 0x00 0x00
Standard ID: 0x0C5       DLC: 8  Data: 0x30 0x00 0x00 0x00 0x30 0x00 0x00 0x00
Standard ID: 0x1E1       DLC: 7  Data: 0x00 0x00 0x04 0x00 0x00 0x0C 0xD0
Standard ID: 0x0F1       DLC: 6  Data: 0x34 0x00 0x00 0x40 0x00 0x00
Standard ID: 0x0C1       DLC: 8  Data: 0x80 0x01 0x1F 0xE8 0x00 0x00 0x00 0x00
Standard ID: 0x0C5       DLC: 8  Data: 0x00 0x00 0x00 0x00 0x00 0x00 0x00 0x00
Standard ID: 0x1CE       DLC: 4  Data: 0x00 0x00 0x00 0x00
Standard ID: 0x1F3       DLC: 3  Data: 0x00 0x3C 0x00
Standard ID: 0x1A1       DLC: 8  Data: 0x00 0x00 0x40 0x00 0x89 0x66 0x00 0x00
Standard ID: 0x1C4       DLC: 8  Data: 0x6D 0x62 0xC0 0xC7 0x06 0x00 0x03 0xFD
Standard ID: 0x0D1       DLC: 7  Data: 0x00 0x00 0x00 0x00 0x00 0x00 0x00
Standard ID: 0x0F1       DLC: 6  Data: 0x00 0x00 0x00 0x40 0x00 0x00
Standard ID: 0x0C1       DLC: 8  Data: 0x90 0x01 0x1F 0xE8 0x10 0x00 0x00 0x00
Standard ID: 0x1E5       DLC: 8  Data: 0x44 0x00 0x39 0x10 0x00 0x00 0x00 0xC9
Standard ID: 0x3CB       DLC: 6  Data: 0x31 0x4C 0x00 0x00 0x15 0x0E
Standard ID: 0x0C5       DLC: 8  Data: 0x10 0x00 0x00 0x00 0x10 0x00 0x00 0x00
Standard ID: 0x0C9       DLC: 8  Data: 0x00 0x00 0x00 0x00 0x00 0x10 0x00 0xFF
Standard ID: 0x3E7       DLC: 2  Data: 0x00 0x65
Standard ID: 0x0F1       DLC: 6  Data: 0x1C 0x00 0x00 0x40 0x00 0x00
Standard ID: 0x0C1       DLC: 8  Data: 0xA0 0x01 0x1F 0xE8 0x20 0x00 0x00 0x00
Standard ID: 0x0D1       DLC: 7  Data: 0x80 0x00 0xBF 0xFE 0x00 0xFE 0x00
Standard ID: 0x1E1       DLC: 7  Data: 0x00 0x00 0x04 0x00 0x01 0x00 0x00
Standard ID: 0x1F3       DLC: 3  Data: 0x40 0x7C 0x00
Standard ID: 0x0C5       DLC: 8  Data: 0x20 0x00 0x00 0x00 0x20 0x00 0x00 0x00
Standard ID: 0x451       DLC: 6  Data: 0x00 0x00 0x00 0x00 0x00 0x00
Standard ID: 0x0C9       DLC: 8  Data: 0x00 0x00 0x00 0x07 0x00 0x10 0x00 0xFF
Standard ID: 0x0F1       DLC: 6  Data: 0x28 0x00 0x00 0x40 0x00 0x00
Standard ID: 0x0C5       DLC: 8  Data: 0x30 0x00 0x00 0x00 0x30 0x00 0x00 0x00
Standard ID: 0x1E5       DLC: 8  Data: 0x44 0x00 0x39 0x50 0x00 0x00 0x01 0x09
Standard ID: 0x2D3       DLC: 8  Data: 0x00 0x00 0x00 0x00 0x00 0x00 0x00 0x00
Standard ID: 0x3FC       DLC: 8  Data: 0x40 0x49 0x1E 0x6E 0x6E 0x00 0x6E 0x6E
Standard ID: 0x0D3       DLC: 8  Data: 0x2B 0xBC 0x00 0x07 0x00 0x10 0x00 0xFF
Standard ID: 0x0F1       DLC: 6  Data: 0x34 0x00 0x00 0x40 0x00 0x00
Standard ID: 0x0C1       DLC: 8  Data: 0x80 0x01 0x1F 0xE8 0x00 0x00 0x00 0x00
Standard ID: 0x0C5       DLC: 8  Data: 0x00 0x00 0x00 0x00 0x00 0x00 0x00 0x00
Standard ID: 0x1C6       DLC: 8  Data: 0x00 0x00 0x00 0x00 0x00 0x83 0xFF 0xFE
Standard ID: 0x214       DLC: 6  Data: 0x06 0x00 0x01 0xFD 0x0C 0x01
Standard ID: 0x17D       DLC: 6  Data: 0x22 0x24 0x42 0xFF 0x00 0x00
Standard ID: 0x0D1       DLC: 7  Data: 0x00 0x00 0x3F 0xFC 0x00 0xFC 0x00
Standard ID: 0x0F1       DLC: 6  Data: 0x00 0x00 0x00 0x40 0x00 0x00
Standard ID: 0x0C1       DLC: 8  Data: 0x90 0x01 0x1F 0xE8 0x10 0x00 0x00 0x00
Standard ID: 0x0C5       DLC: 8  Data: 0x10 0x00 0x00 0x00 0x10 0x00 0x00 0x00
Standard ID: 0x0D1       DLC: 7  Data: 0x40 0x00 0x7F 0xFB 0x00 0xFB 0x00
Standard ID: 0x1F3       DLC: 3  Data: 0x80 0xBC 0x00
Standard ID: 0x1A1       DLC: 8  Data: 0x00 0x00 0x40 0x00 0x89 0x66 0x00 0x00
Standard ID: 0x1C5       DLC: 8  Data: 0x2C 0x34 0x2C 0x03 0x30 0x2C 0x07 0xFF
Standard ID: 0x0C9       DLC: 8  Data: 0x00 0x00 0x00 0x0D 0x00 0x10 0x00 0xFF
Standard ID: 0x0F1       DLC: 6  Data: 0x1C 0x00 0x00 0x40 0x00 0x00
Standard ID: 0x0C5       DLC: 8  Data: 0x20 0x00 0x00 0x00 0x20 0x00 0x00 0x00
Standard ID: 0x1C7       DLC: 7  Data: 0x06 0xA0 0xF9 0x5D 0x00 0x00 0x3E
Standard ID: 0x0C1       DLC: 8  Data: 0xA0 0x01 0x1F 0xE8 0x20 0x00 0x00 0x00
Standard ID: 0x0C9       DLC: 8  Data: 0x00 0x00 0x00 0x00 0x00 0x10 0x00 0xFF
Standard ID: 0x0D3       DLC: 8  Data: 0x2B 0xBC 0x00 0x00 0x00 0x10 0x00 0xFF
Standard ID: 0x0F1       DLC: 6  Data: 0x28 0x00 0x00 0x40 0x00 0x00
Standard ID: 0x0C1       DLC: 8  Data: 0xB0 0x01 0x1F 0xE8 0x30 0x00 0x00 0x00
Standard ID: 0x0D1       DLC: 7  Data: 0xC0 0x00 0xFF 0xF9 0x00 0xF9 0x00
Standard ID: 0x0F9       DLC: 8  Data: 0x00 0x00 0x00 0x00 0x00 0x00 0x00 0x00
Standard ID: 0x0C9       DLC: 8  Data: 0x00 0x00 0x00 0x07 0x00 0x10 0x00 0xFF
Standard ID: 0x0F1       DLC: 6  Data: 0x34 0x00 0x00 0x40 0x00 0x00
Standard ID: 0x0C5       DLC: 8  Data: 0x00 0x00 0x00 0x00 0x00 0x00 0x00 0x00
Standard ID: 0x1C4       DLC: 8  Data: 0x4A 0x62 0xC0 0xC7 0x04 0x00 0x05 0xFE
Standard ID: 0x1E9       DLC: 8  Data: 0x0F 0xF6 0x00 0x06 0x00 0x08 0x00 0x00
Standard ID: 0x2D3       DLC: 8  Data: 0x00 0x00 0x00 0x00 0x00 0x00 0x00 0x00
Standard ID: 0x137       DLC: 8  Data: 0x00 0x00 0x00 0x00 0x00 0x00 0x00 0x00
Standard ID: 0x0F1       DLC: 6  Data: 0x00 0x00 0x00 0x40 0x00 0x00
Standard ID: 0x0D3       DLC: 8  Data: 0x2B 0xBC 0x00 0x07 0x00 0x10 0x00 0xFF
Standard ID: 0x0C1       DLC: 8  Data: 0x90 0x01 0x1F 0xE8 0x10 0x00 0x00 0x00
Standard ID: 0x0D3       DLC: 8  Data: 0x2B 0xBC 0x00 0x0A 0x00 0x10 0x00 0xFF
Standard ID: 0x362       DLC: 4  Data: 0x00 0x00 0x00 0x00
Standard ID: 0x0C5       DLC: 8  Data: 0x10 0x00 0x00 0x00 0x10 0x00 0x00 0x00
Standard ID: 0x1E1       DLC: 7  Data: 0x00 0x00 0x04 0x00 0x03 0x08 0xE0
Standard ID: 0x0F1       DLC: 6  Data: 0x1C 0x00 0x00 0x40 0x00 0x00
Standard ID: 0x0C1       DLC: 8  Data: 0xA0 0x01 0x1F 0xE8 0x20 0x00 0x00 0x00
Standard ID: 0x0C5       DLC: 8  Data: 0x20 0x00 0x00 0x00 0x20 0x00 0x00 0x00
Standard ID: 0x1CE       DLC: 4  Data: 0x08 0x00 0x07 0xFF
Standard ID: 0x1F3       DLC: 3  Data: 0xC0 0xFC 0x00
Standard ID: 0x1A1       DLC: 8  Data: 0x00 0x00 0x40 0x00 0x89 0x66 0x00 0x00
Standard ID: 0x1C4       DLC: 8  Data: 0x6D 0x62 0xC0 0xC7 0x06 0x00 0x03 0xFD
Standard ID: 0x0D1       DLC: 7  Data: 0x80 0x00 0xBF 0xFE 0x00 0xFE 0x00
Standard ID: 0x0F1       DLC: 6  Data: 0x28 0x00 0x00 0x40 0x00 0x00
Standard ID: 0x0C1       DLC: 8  Data: 0xB0 0x01 0x1F 0xE8 0x30 0x00 0x00 0x00
Standard ID: 0x1E5       DLC: 8  Data: 0x44 0x00 0x39 0x50 0x00 0x00 0x01 0x09
Standard ID: 0x1F3       DLC: 3  Data: 0x00 0x3C 0x00
Standard ID: 0x0C5       DLC: 8  Data: 0x30 0x00 0x00 0x00 0x30 0x00 0x00 0x00
Standard ID: 0x0C9       DLC: 8  Data: 0x00 0x00 0x00 0x00 0x00 0x10 0x00 0xFF
Standard ID: 0x0D3       DLC: 8  Data: 0x2B 0xBC 0x00 0x00 0x00 0x10 0x00 0xFF
Standard ID: 0x0F1       DLC: 6  Data: 0x34 0x00 0x00 0x40 0x00 0x00
Standard ID: 0x0C1       DLC: 8  Data: 0x80 0x01 0x1F 0xE8 0x00 0x00 0x00 0x00
Standard ID: 0x1E5       DLC: 8  Data: 0x44 0x00 0x39 0x70 0x00 0x00 0x01 0x29
Standard ID: 0x3CB       DLC: 6  Data: 0x31 0x4E 0x00 0x00 0x15 0x16
Standard ID: 0x3C9       DLC: 8  Data: 0x07 0x66 0x00 0x00 0x00 0x00 0x00 0x00
Standard ID: 0x451       DLC: 6  Data: 0x00 0x00 0x00 0x00 0x00 0x00
Standard ID: 0x0C9       DLC: 8  Data: 0x00 0x00 0x00 0x07 0x00 0x10 0x00 0xFF
Standard ID: 0x0F1       DLC: 6  Data: 0x00 0x00 0x00 0x40 0x00 0x00
Standard ID: 0x0C5       DLC: 8  Data: 0x10 0x00 0x00 0x00 0x10 0x00 0x00 0x00
Standard ID: 0x1E5       DLC: 8  Data: 0x44 0x00 0x39 0x10 0x00 0x00 0x00 0xC9
Standard ID: 0x3C1       DLC: 8  Data: 0x07 0x65 0x14 0x00 0x00 0x00 0x00 0x00
Standard ID: 0x0D3       DLC: 8  Data: 0x2B 0xBC 0x00 0x07 0x00 0x10 0x00 0xFF
Standard ID: 0x0F1       DLC: 6  Data: 0x1C 0x00 0x00 0x40 0x00 0x00
Standard ID: 0x0C1       DLC: 8  Data: 0xA0 0x01 0x1F 0xE8 0x20 0x00 0x00 0x00
Standard ID: 0x0C5       DLC: 8  Data: 0x20 0x00 0x00 0x00 0x20 0x00 0x00 0x00
Standard ID: 0x0D3       DLC: 8  Data: 0x2B 0xBC 0x00 0x0A 0x00 0x10 0x00 0xFF
Standard ID: 0x232       DLC: 7  Data: 0x00 0x00 0x00 0x00 0x00 0x00 0x00
Standard ID: 0x365       DLC: 4  Data: 0x00 0x00 0x00 0x00
Standard ID: 0x0D1       DLC: 7  Data: 0x80 0x00 0xBF 0xFA 0x00 0xFA 0x00
Standard ID: 0x0F1       DLC: 6  Data: 0x28 0x00 0x00 0x40 0x00 0x00
Standard ID: 0x0C1       DLC: 8  Data: 0xB0 0x01 0x1F 0xE8 0x30 0x00 0x00 0x00
Standard ID: 0x0C5       DLC: 8  Data: 0x30 0x00 0x00 0x00 0x30 0x00 0x00 0x00
Standard ID: 0x0D1       DLC: 7  Data: 0xC0 0x00 0xFF 0xF9 0x00 0xF9 0x00
Standard ID: 0x0C9       DLC: 8  Data: 0x00 0x00 0x00 0x0D 0x00 0x10 0x00 0xFF
Standard ID: 0x1A1       DLC: 8  Data: 0x00 0x00 0x40 0x00 0x89 0x66 0x00 0x00
Standard ID: 0x1F5       DLC: 8  Data: 0xED 0x00 0x00 0x0F 0x18 0x00 0x03 0x1C
Standard ID: 0x0F1       DLC: 6  Data: 0x34 0x00 0x00 0x40 0x00 0x00
Standard ID: 0x0C1       DLC: 8  Data: 0x80 0x01 0x1F 0xE8 0x00 0x00 0x00 0x00
Standard ID: 0x0D1       DLC: 7  Data: 0x00 0x00 0x00 0x00 0x00 0x00 0x00
Standard ID: 0x1E9       DLC: 8  Data: 0x0F 0xF0 0x00 0x06 0x00 0x08 0x00 0x00
Standard ID: 0x0D3       DLC: 8  Data: 0x2B 0xBC 0x00 0x0D 0x00 0x10 0x00 0xFF
Standard ID: 0x0C9       DLC: 8  Data: 0x00 0x00 0x00 0x00 0x00 0x10 0x00 0xFF
Standard ID: 0x0F9       DLC: 8  Data: 0x00 0x00 0x00 0x00 0x00 0x00 0x00 0x00
Standard ID: 0x0F1       DLC: 6  Data: 0x00 0x00 0x00 0x40 0x00 0x00
Standard ID: 0x0C1       DLC: 8  Data: 0x90 0x01 0x1F 0xE8 0x10 0x00 0x00 0x00
Standard ID: 0x1C8       DLC: 8  Data: 0x00 0x00 0x00 0x00 0x00 0x00 0x00 0x00
Standard ID: 0x0D3       DLC: 8  Data: 0x2B 0xBC 0x00 0x00 0x00 0x10 0x00 0xFF
Standard ID: 0x1F3       DLC: 3  Data: 0x80 0xBC 0x00
Standard ID: 0x0F1       DLC: 6  Data: 0x1C 0x00 0x00 0x40 0x00 0x00
Standard ID: 0x0C9       DLC: 8  Data: 0x00 0x00 0x00 0x07 0x00 0x10 0x00 0xFF
Standard ID: 0x0C1       DLC: 8  Data: 0xA0 0x01 0x1F 0xE8 0x20 0x00 0x00 0x00
Standard ID: 0x1C4       DLC: 8  Data: 0x4A 0x62 0xC0 0xC7 0x04 0x00 0x05 0xFE
Standard ID: 0x1E9       DLC: 8  Data: 0x0F 0xF6 0x00 0x06 0x00 0x08 0x00 0x00
Standard ID: 0x2D3       DLC: 8  Data: 0x00 0x00 0x00 0x00 0x00 0x00 0x00 0x00
Standard ID: 0x137       DLC: 8  Data: 0x00 0x00 0x00 0x00 0x00 0x00 0x00 0x00
Standard ID: 0x0F1       DLC: 6  Data: 0x28 0x00 0x00 0x40 0x00 0x00
Standard ID: 0x0D3       DLC: 8  Data: 0x2B 0xBC 0x00 0x07 0x00 0x10 0x00 0xFF
Standard ID: 0x0C1       DLC: 8  Data: 0xB0 0x01 0x1F 0xE8 0x30 0x00 0x00 0x00
Standard ID: 0x0D3       DLC: 8  Data: 0x2B 0xBC 0x00 0x0A 0x00 0x10 0x00 0xFF
Standard ID: 0x365       DLC: 4  Data: 0x00 0x00 0x00 0x00
Standard ID: 0x0C5       DLC: 8  Data: 0x30 0x00 0x00 0x00 0x30 0x00 0x00 0x00
Standard ID: 0x1F1       DLC: 8  Data: 0x80 0x0E 0x00 0x00 0x18 0x00 0x00 0x72
Standard ID: 0x0F1       DLC: 6  Data: 0x34 0x00 0x00 0x40 0x00 0x00
Standard ID: 0x0C1       DLC: 8  Data: 0x80 0x01 0x1F 0xE8 0x00 0x00 0x00 0x00
Standard ID: 0x0C5       DLC: 8  Data: 0x00 0x00 0x00 0x00 0x00 0x00 0x00 0x00
Standard ID: 0x1CE       DLC: 4  Data: 0x10 0x00 0x07 0xFE
Standard ID: 0x1F3       DLC: 3  Data: 0xC0 0xFC 0x00
Standard ID: 0x1A1       DLC: 8  Data: 0x00 0x00 0x40 0x00 0x89 0x66 0x00 0x00
Standard ID: 0x1C4       DLC: 8  Data: 0x6D 0x62 0xC0 0xC7 0x06 0x00 0x03 0xFD
Standard ID: 0x0D1       DLC: 7  Data: 0x00 0x00 0x3F 0xFC 0x00 0xFC 0x00
Standard ID: 0x0F1       DLC: 6  Data: 0x00 0x00 0x00 0x40 0x00 0x00
Standard ID: 0x0C1       DLC: 8  Data: 0x90 0x01 0x1F 0xE8 0x10 0x00 0x00 0x00
Standard ID: 0x1E5       DLC: 8  Data: 0x44 0x00 0x39 0x10 0x00 0x00 0x00 0xC9
Standard ID: 0x3CB       DLC: 6  Data: 0x31 0x4E 0x00 0x00 0x15 0x16
Standard ID: 0x0C5       DLC: 8  Data: 0x10 0x00 0x00 0x00 0x10 0x00 0x00 0x00
Standard ID: 0x0C9       DLC: 8  Data: 0x00 0x00 0x00 0x00 0x00 0x10 0x00 0xFF
Standard ID: 0x3E7       DLC: 2  Data: 0x00 0x65
Standard ID: 0x0F1       DLC: 6  Data: 0x1C 0x00 0x00 0x40 0x00 0x00
Standard ID: 0x0C1       DLC: 8  Data: 0xA0 0x01 0x1F 0xE8 0x20 0x00 0x00 0x00
Standard ID: 0x0D1       DLC: 7  Data: 0x80 0x00 0xBF 0xFA 0x00 0xFA 0x00
Standard ID: 0x1E9       DLC: 8  Data: 0x0F 0xF6 0x00 0x06 0x00 0x0A 0x00 0x00
Standard ID: 0x0C5       DLC: 8  Data: 0x20 0x00 0x00 0x00 0x20 0x00 0x00 0x00
Standard ID: 0x0F1       DLC: 6  Data: 0x28 0x00 0x00 0x40 0x00 0x00
Standard ID: 0x0C9       DLC: 8  Data: 0x00 0x00 0x00 0x07 0x00 0x10 0x00 0xFF
Standard ID: 0x0C1       DLC: 8  Data: 0xB0 0x01 0x1F 0xE8 0x30 0x00 0x00 0x00
Standard ID: 0x1E1       DLC: 7  Data: 0x00 0x00 0x04 0x00 0x00 0x0C 0xD0
Standard ID: 0x2D3       DLC: 8  Data: 0x00 0x00 0x00 0x00 0x00 0x00 0x00 0x00
Standard ID: 0x0D3       DLC: 8  Data: 0x2B 0xBC 0x00 0x07 0x00 0x10 0x00 0xFF
Standard ID: 0x451       DLC: 6  Data: 0x00 0x00 0x00 0x00 0x00 0x00
Standard ID: 0x0F1       DLC: 6  Data: 0x34 0x00 0x00 0x40 0x00 0x00
Standard ID: 0x0C1       DLC: 8  Data: 0x80 0x01 0x1F 0xE8 0x00 0x00 0x00 0x00
Standard ID: 0x0C5       DLC: 8  Data: 0x00 0x00 0x00 0x00 0x00 0x00 0x00 0x00
Standard ID: 0x1C6       DLC: 8  Data: 0x00 0x00 0x00 0x00 0x00 0x00 0x00 0x00
Standard ID: 0x214       DLC: 6  Data: 0x06 0x00 0x01 0xFD 0x0C 0x01
Standard ID: 0x17D       DLC: 6  Data: 0x22 0x24 0x42 0xFF 0x00 0x00
Standard ID: 0x0D1       DLC: 7  Data: 0x00 0x00 0x00 0x00 0x00 0x00 0x00
Standard ID: 0x0F1       DLC: 6  Data: 0x00 0x00 0x00 0x40 0x00 0x00
Standard ID: 0x0C1       DLC: 8  Data: 0x90 0x01 0x1F 0xE8 0x10 0x00 0x00 0x00
Standard ID: 0x0C5       DLC: 8  Data: 0x10 0x00 0x00 0x00 0x10 0x00 0x00 0x00
Standard ID: 0x0D1       DLC: 7  Data: 0x40 0x00 0x7F 0xFF 0x00 0xFF 0x00
Standard ID: 0x0C9       DLC: 8  Data: 0x00 0x00 0x00 0x0D 0x00 0x10 0x00 0xFF
Standard ID: 0x1A1       DLC: 8  Data: 0x00 0x00 0x40 0x00 0x89 0x66 0x00 0x00
Standard ID: 0x1F5       DLC: 8  Data: 0xED 0x00 0x00 0x0F 0x18 0x00 0x03 0x1C
Standard ID: 0x0F1       DLC: 6  Data: 0x1C 0x00 0x00 0x40 0x00 0x00
Standard ID: 0x0C1       DLC: 8  Data: 0xA0 0x01 0x1F 0xE8 0x20 0x00 0x00 0x00
Standard ID: 0x0D1       DLC: 7  Data: 0x80 0x00 0xBF 0xFE 0x00 0xFE 0x00
Standard ID: 0x1E1       DLC: 7  Data: 0x00 0x00 0x04 0x00 0x01 0x00 0x00
Standard ID: 0x1F3       DLC: 3  Data: 0x40 0x7C 0x00
Standard ID: 0x0D3       DLC: 8  Data: 0x2B 0xBC 0x00 0x0D 0x00 0x10 0x00 0xFF
Standard ID: 0x451       DLC: 6  Data: 0x00 0x00 0x00 0x00 0x00 0x00
Standard ID: 0x0C9       DLC: 8  Data: 0x00 0x00 0x00 0x00 0x00 0x10 0x00 0xFF
Standard ID: 0x0F1       DLC: 6  Data: 0x28 0x00 0x00 0x40 0x00 0x00
Standard ID: 0x0C1       DLC: 8  Data: 0xB0 0x01 0x1F 0xE8 0x30 0x00 0x00 0x00
Standard ID: 0x0C5       DLC: 8  Data: 0x30 0x00 0x00 0x00 0x30 0x00 0x00 0x00
Standard ID: 0x0F1       DLC: 6  Data: 0x34 0x00 0x00 0x40 0x00 0x00
Standard ID: 0x0C9       DLC: 8  Data: 0x00 0x00 0x00 0x07 0x00 0x10 0x00 0xFF
Standard ID: 0x0C1       DLC: 8  Data: 0x80 0x01 0x1F 0xE8 0x00 0x00 0x00 0x00
Standard ID: 0x1C4       DLC: 8  Data: 0x4A 0x62 0xC0 0xC7 0x04 0x00 0x05 0xFE
Standard ID: 0x1E9       DLC: 8  Data: 0x0F 0xF0 0x00 0x06 0x00 0x08 0x00 0x00
Standard ID: 0x2D3       DLC: 8  Data: 0x00 0x00 0x00 0x00 0x00 0x00 0x00 0x00
Standard ID: 0x137       DLC: 8  Data: 0x00 0x00 0x00 0x00 0x00 0x00 0x00 0x00
Standard ID: 0x0F1       DLC: 6  Data: 0x00 0x00 0x00 0x40 0x00 0x00
Standard ID: 0x0D3       DLC: 8  Data: 0x2B 0xBC 0x00 0x07 0x00 0x10 0x00 0xFF
Standard ID: 0x0C1       DLC: 8  Data: 0x90 0x01 0x1F 0xE8 0x10 0x00 0x00 0x00
Standard ID: 0x0D3       DLC: 8  Data: 0x2B 0xBC 0x00 0x0A 0x00 0x10 0x00 0xFF
Standard ID: 0x362       DLC: 4  Data: 0x00 0x00 0x00 0x00
Standard ID: 0x0C5       DLC: 8  Data: 0x10 0x00 0x00 0x00 0x10 0x00 0x00 0x00
Standard ID: 0x1E1       DLC: 7  Data: 0x00 0x00 0x04 0x00 0x02 0x04 0xF0
Standard ID: 0x0F1       DLC: 6  Data: 0x1C 0x00 0x00 0x40 0x00 0x00
Standard ID: 0x0C1       DLC: 8  Data: 0xA0 0x01 0x1F 0xE8 0x20 0x00 0x00 0x00
Standard ID: 0x0C5       DLC: 8  Data: 0x20 0x00 0x00 0x00 0x20 0x00 0x00 0x00
Standard ID: 0x1CE       DLC: 4  Data: 0x18 0x00 0x07 0xFD
Standard ID: 0x1F3       DLC: 3  Data: 0x80 0xBC 0x00
Standard ID: 0x1A1       DLC: 8  Data: 0x00 0x00 0x40 0x00 0x89 0x66 0x00 0x00
Standard ID: 0x1C4       DLC: 8  Data: 0x6D 0x62 0xC0 0xC7 0x06 0x00 0x03 0xFD
Standard ID: 0x0D1       DLC: 7  Data: 0x80 0x00 0xBF 0xFA 0x00 0xFA 0x00
Standard ID: 0x0F1       DLC: 6  Data: 0x28 0x00 0x00 0x40 0x00 0x00
Standard ID: 0x0C1       DLC: 8  Data: 0xB0 0x01 0x1F 0xE8 0x30 0x00 0x00 0x00
Standard ID: 0x1E5       DLC: 8  Data: 0x44 0x00 0x39 0x50 0x00 0x00 0x01 0x09
Standard ID: 0x3CB       DLC: 6  Data: 0x31 0x50 0x00 0x00 0x15 0x16
Standard ID: 0x0C5       DLC: 8  Data: 0x30 0x00 0x00 0x00 0x30 0x00 0x00 0x00
Standard ID: 0x3E7       DLC: 2  Data: 0x00 0x65
Standard ID: 0x0C9       DLC: 8  Data: 0x00 0x00 0x00 0x00 0x00 0x10 0x00 0xFF
Standard ID: 0x0F1       DLC: 6  Data: 0x34 0x00 0x00 0x40 0x00 0x00
Standard ID: 0x0C1       DLC: 8  Data: 0x80 0x01 0x1F 0xE8 0x00 0x00 0x00 0x00
Standard ID: 0x0D1       DLC: 7  Data: 0x00 0x00 0x00 0x00 0x00 0x00 0x00
Standard ID: 0x1E9       DLC: 8  Data: 0x0F 0xF6 0x00 0x06 0x00 0x08 0x00 0x00
Standard ID: 0x1F3       DLC: 3  Data: 0xC0 0xFC 0x00
Standard ID: 0x0C5       DLC: 8  Data: 0x00 0x00 0x00 0x00 0x00 0x00 0x00 0x00
Standard ID: 0x3F1       DLC: 8  Data: 0x00 0xFF 0xFA 0x08 0x00 0x8F 0x0A 0x65
Standard ID: 0x0F1       DLC: 6  Data: 0x00 0x00 0x00 0x40 0x00 0x00
Standard ID: 0x0D3       DLC: 8  Data: 0x2B 0xBC 0x00 0x07 0x00 0x10 0x00 0xFF
Standard ID: 0x0C1       DLC: 8  Data: 0x90 0x01 0x1F 0xE8 0x10 0x00 0x00 0x00
Standard ID: 0x1C5       DLC: 8  Data: 0x2C 0x34 0x2C 0x03 0x30 0x2C 0x00 0x00
Standard ID: 0x3C1       DLC: 8  Data: 0x07 0x65 0x14 0x00 0x00 0x00 0x00 0x00
Standard ID: 0x4D7       DLC: 5  Data: 0x01 0x3E 0x98 0xE5 0xC3
Standard ID: 0x0C9       DLC: 8  Data: 0x00 0x00 0x00 0x07 0x00 0x10 0x00 0xFF
Standard ID: 0x0F1       DLC: 6  Data: 0x1C 0x00 0x00 0x40 0x00 0x00
Standard ID: 0x0C1       DLC: 8  Data: 0xA0 0x01 0x1F 0xE8 0x20 0x00 0x00 0x00
Standard ID: 0x0C5       DLC: 8  Data: 0x20 0x00 0x00 0x00 0x20 0x00 0x00 0x00
Standard ID: 0x1C6       DLC: 8  Data: 0x00 0x00 0x00 0x00 0x00 0x43 0xFF 0xFF
Standard ID: 0x214       DLC: 6  Data: 0x02 0x00 0x01 0xFF 0x04 0x03
Standard ID: 0x17D       DLC: 6  Data: 0x22 0x24 0x42 0xFF 0x00 0x00
Standard ID: 0x0D1       DLC: 7  Data: 0x80 0x00 0xBF 0xFE 0x00 0xFE 0x00
Standard ID: 0x0F1       DLC: 6  Data: 0x28 0x00 0x00 0x40 0x00 0x00
Standard ID: 0x0C1       DLC: 8  Data: 0xB0 0x01 0x1F 0xE8 0x30 0x00 0x00 0x00
Standard ID: 0x0C5       DLC: 8  Data: 0x30 0x00 0x00 0x00 0x30 0x00 0x00 0x00
Standard ID: 0x0D1       DLC: 7  Data: 0xC0 0x00 0xFF 0xFD 0x00 0xFD 0x00
Standard ID: 0x1F3       DLC: 3  Data: 0x00 0x3C 0x00
Standard ID: 0x1A1       DLC: 8  Data: 0x00 0x00 0x40 0x00 0x89 0x66 0x00 0x00
Standard ID: 0x1C5       DLC: 8  Data: 0x2C 0x34 0x2C 0x03 0x30 0x2C 0x07 0xFF
Standard ID: 0x0F1       DLC: 6  Data: 0x34 0x00 0x00 0x40 0x00 0x00
Standard ID: 0x0C9       DLC: 8  Data: 0x00 0x00 0x00 0x0D 0x00 0x10 0x00 0xFF
Standard ID: 0x0C1       DLC: 8  Data: 0x80 0x01 0x1F 0xE8 0x00 0x00 0x00 0x00
Standard ID: 0x1C7       DLC: 7  Data: 0x06 0xA0 0xB9 0x5E 0x00 0x00 0x3E
Standard ID: 0x0C5       DLC: 8  Data: 0x00 0x00 0x00 0x00 0x00 0x00 0x00 0x00
Standard ID: 0x0C9       DLC: 8  Data: 0x00 0x00 0x00 0x00 0x00 0x10 0x00 0xFF
Standard ID: 0x0D3       DLC: 8  Data: 0x2B 0xBC 0x00 0x00 0x00 0x10 0x00 0xFF
Standard ID: 0x0F1       DLC: 6  Data: 0x00 0x00 0x00 0x40 0x00 0x00
Standard ID: 0x0C1       DLC: 8  Data: 0x90 0x01 0x1F 0xE8 0x10 0x00 0x00 0x00
Standard ID: 0x1C8       DLC: 8  Data: 0x00 0x00 0x00 0x00 0x00 0x00 0x00 0x00
Standard ID: 0x0F9       DLC: 8  Data: 0x00 0x00 0x00 0x00 0x00 0x00 0x00 0x00
Standard ID: 0x0F1       DLC: 6  Data: 0x1C 0x00 0x00 0x40 0x00 0x00
Standard ID: 0x0C9       DLC: 8  Data: 0x00 0x00 0x00 0x07 0x00 0x10 0x00 0xFF
Standard ID: 0x0C1       DLC: 8  Data: 0xA0 0x01 0x1F 0xE8 0x20 0x00 0x00 0x00
Standard ID: 0x1C8       DLC: 8  Data: 0x40 0x00 0x00 0x00 0xFF 0xFF 0x3F 0xFF
Standard ID: 0x1E9       DLC: 8  Data: 0x0F 0xF6 0x00 0x06 0x00 0x08 0x00 0x00
Standard ID: 0x2D3       DLC: 8  Data: 0x00 0x00 0x00 0x00 0x00 0x00 0x00 0x00
Standard ID: 0x137       DLC: 8  Data: 0x00 0x00 0x00 0x00 0x00 0x00 0x00 0x00
Standard ID: 0x0F1       DLC: 6  Data: 0x28 0x00 0x00 0x40 0x00 0x00
Standard ID: 0x0D3       DLC: 8  Data: 0x2B 0xBC 0x00 0x07 0x00 0x10 0x00 0xFF
Standard ID: 0x0C1       DLC: 8  Data: 0xB0 0x01 0x1F 0xE8 0x30 0x00 0x00 0x00
Standard ID: 0x0D3       DLC: 8  Data: 0x2B 0xBC 0x00 0x0A 0x00 0x10 0x00 0xFF
Standard ID: 0x362       DLC: 4  Data: 0x00 0x00 0x00 0x00
Standard ID: 0x0C5       DLC: 8  Data: 0x30 0x00 0x00 0x00 0x30 0x00 0x00 0x00
Standard ID: 0x1E1       DLC: 7  Data: 0x00 0x00 0x04 0x00 0x01 0x00 0x00
Standard ID: 0x0F1       DLC: 6  Data: 0x34 0x00 0x00 0x40 0x00 0x00
Standard ID: 0x0C1       DLC: 8  Data: 0x80 0x01 0x1F 0xE8 0x00 0x00 0x00 0x00
Standard ID: 0x0C5       DLC: 8  Data: 0x00 0x00 0x00 0x00 0x00 0x00 0x00 0x00
Standard ID: 0x1CE       DLC: 4  Data: 0x00 0x00 0x00 0x00
Standard ID: 0x1F3       DLC: 3  Data: 0x40 0x7C 0x00
Standard ID: 0x1A1       DLC: 8  Data: 0x00 0x00 0x40 0x00 0x89 0x66 0x00 0x00
Standard ID: 0x1C4       DLC: 8  Data: 0x6D 0x62 0xC0 0xC7 0x06 0x00 0x03 0xFD
Standard ID: 0x0D1       DLC: 7  Data: 0x00 0x00 0x00 0x00 0x00 0x00 0x00
Standard ID: 0x0F1       DLC: 6  Data: 0x00 0x00 0x00 0x40 0x00 0x00
Standard ID: 0x0C1       DLC: 8  Data: 0x90 0x01 0x1F 0xE8 0x10 0x00 0x00 0x00
Standard ID: 0x1E1       DLC: 7  Data: 0x00 0x00 0x04 0x00 0x02 0x04 0xF0
Standard ID: 0x1F3       DLC: 3  Data: 0x80 0xBC 0x00
Standard ID: 0x0C5       DLC: 8  Data: 0x10 0x00 0x00 0x00 0x10 0x00 0x00 0x00
Standard ID: 0x3C9       DLC: 8  Data: 0x07 0x66 0x00 0x00 0x00 0x00 0x00 0x00
Standard ID: 0x0D3       DLC: 8  Data: 0x2B 0xBC 0x00 0x00 0x00 0x10 0x00 0xFF
Standard ID: 0x0F1       DLC: 6  Data: 0x1C 0x00 0x00 0x40 0x00 0x00
Standard ID: 0x0C1       DLC: 8  Data: 0xA0 0x01 0x1F 0xE8 0x20 0x00 0x00 0x00
Standard ID: 0x1C8       DLC: 8  Data: 0x40 0x00 0x00 0x00 0xFF 0xFF 0x3F 0xFF
Standard ID: 0x232       DLC: 7  Data: 0x00 0x00 0x00 0x00 0x00 0x00 0x00
Standard ID: 0x0C9       DLC: 8  Data: 0x00 0x00 0x00 0x00 0x00 0x10 0x00 0xFF
Standard ID: 0x451       DLC: 6  Data: 0x00 0x00 0x00 0x00 0x00 0x00
Standard ID: 0x0F1       DLC: 6  Data: 0x28 0x00 0x00 0x40 0x00 0x00
Standard ID: 0x0C9       DLC: 8  Data: 0x00 0x00 0x00 0x07 0x00 0x10 0x00 0xFF
Standard ID: 0x1A3       DLC: 8  Data: 0x00 0x00 0x00 0x00 0x00 0x00 0x00 0x00
Standard ID: 0x1E5       DLC: 8  Data: 0x44 0x00 0x39 0x50 0x00 0x00 0x01 0x09
Standard ID: 0x3C1       DLC: 8  Data: 0x07 0x65 0x14 0x00 0x00 0x00 0x00 0x00
Standard ID: 0x0D3       DLC: 8  Data: 0x2B 0xBC 0x00 0x07 0x00 0x10 0x00 0xFF
Standard ID: 0x0F1       DLC: 6  Data: 0x34 0x00 0x00 0x40 0x00 0x00
Standard ID: 0x0C1       DLC: 8  Data: 0x80 0x01 0x1F 0xE8 0x00 0x00 0x00 0x00
Standard ID: 0x0C5       DLC: 8  Data: 0x00 0x00 0x00 0x00 0x00 0x00 0x00 0x00
Standard ID: 0x0D3       DLC: 8  Data: 0x2B 0xBC 0x00 0x0A 0x00 0x10 0x00 0xFF
Standard ID: 0x232       DLC: 7  Data: 0x00 0x00 0x00 0x00 0x00 0x00 0x00
Standard ID: 0x370       DLC: 6  Data: 0x00 0x00 0x00 0x00 0x00 0x00
Standard ID: 0x0D1       DLC: 7  Data: 0x00 0x00 0x3F 0xFC 0x00 0xFC 0x00
Standard ID: 0x0F1       DLC: 6  Data: 0x00 0x00 0x00 0x40 0x00 0x00
Standard ID: 0x0C1       DLC: 8  Data: 0x90 0x01 0x1F 0xE8 0x10 0x00 0x00 0x00
Standard ID: 0x0C5       DLC: 8  Data: 0x10 0x00 0x00 0x00 0x10 0x00 0x00 0x00
Standard ID: 0x0D1       DLC: 7  Data: 0x40 0x00 0x7F 0xFB 0x00 0xFB 0x00
Standard ID: 0x0C9       DLC: 8  Data: 0x00 0x00 0x00 0x0D 0x00 0x10 0x00 0xFF
Standard ID: 0x1A1       DLC: 8  Data: 0x00 0x00 0x40 0x00 0x89 0x66 0x00 0x00
Standard ID: 0x1F5       DLC: 8  Data: 0xED 0x00 0x00 0x0F 0x18 0x00 0x03 0x1C
Standard ID: 0x0F1       DLC: 6  Data: 0x1C 0x00 0x00 0x40 0x00 0x00
Standard ID: 0x0C1       DLC: 8  Data: 0xA0 0x01 0x1F 0xE8 0x20 0x00 0x00 0x00
Standard ID: 0x0D1       DLC: 7  Data: 0x80 0x00 0xBF 0xFA 0x00 0xFA 0x00
Standard ID: 0x1E9       DLC: 8  Data: 0x0F 0xF0 0x00 0x06 0x00 0x08 0x00 0x00
Standard ID: 0x0D3       DLC: 8  Data: 0x2B 0xBC 0x00 0x0D 0x00 0x10 0x00 0xFF
Standard ID: 0x0C9       DLC: 8  Data: 0x00 0x00 0x00 0x00 0x00 0x10 0x00 0xFF
Standard ID: 0x0F9       DLC: 8  Data: 0x00 0x00 0x00 0x00 0x00 0x00 0x00 0x00
Standard ID: 0x0F1       DLC: 6  Data: 0x28 0x00 0x00 0x40 0x00 0x00
Standard ID: 0x0C1       DLC: 8  Data: 0xB0 0x01 0x1F 0xE8 0x30 0x00 0x00 0x00
Standard ID: 0x1C8       DLC: 8  Data: 0x80 0x00 0x00 0x00 0xFF 0xFE 0x3F 0xFE
Standard ID: 0x0D3       DLC: 8  Data: 0x2B 0xBC 0x00 0x00 0x00 0x10 0x00 0xFF
Standard ID: 0x1F3       DLC: 3  Data: 0x00 0x3C 0x00
Standard ID: 0x0F1       DLC: 6  Data: 0x34 0x00 0x00 0x40 0x00 0x00
Standard ID: 0x0C9       DLC: 8  Data: 0x00 0x00 0x00 0x07 0x00 0x10 0x00 0xFF
Standard ID: 0x1A3       DLC: 8  Data: 0x00 0x00 0x00 0x00 0x00 0x00 0x00 0x00
Standard ID: 0x1C8       DLC: 8  Data: 0xC0 0x00 0x00 0x00 0xFF 0xFD 0x3F 0xFD
Standard ID: 0x1E9       DLC: 8  Data: 0x0F 0xF0 0x00 0x06 0x00 0x08 0x00 0x00
Standard ID: 0x2D3       DLC: 8  Data: 0x00 0x00 0x00 0x00 0x00 0x00 0x00 0x00
Standard ID: 0x137       DLC: 8  Data: 0x00 0x00 0x00 0x00 0x00 0x00 0x00 0x00
Standard ID: 0x0F1       DLC: 6  Data: 0x00 0x00 0x00 0x40 0x00 0x00
Standard ID: 0x0D3       DLC: 8  Data: 0x2B 0xBC 0x00 0x07 0x00 0x10 0x00 0xFF
Standard ID: 0x0C1       DLC: 8  Data: 0x90 0x01 0x1F 0xE8 0x10 0x00 0x00 0x00
Standard ID: 0x0D3       DLC: 8  Data: 0x2B 0xBC 0x00 0x0A 0x00 0x10 0x00 0xFF
Standard ID: 0x362       DLC: 4  Data: 0x00 0x00 0x00 0x00
Standard ID: 0x0C5       DLC: 8  Data: 0x10 0x00 0x00 0x00 0x10 0x00 0x00 0x00
Standard ID: 0x1F1       DLC: 8  Data: 0x80 0x0E 0x00 0x00 0x18 0x00 0x00 0x72
Standard ID: 0x0F1       DLC: 6  Data: 0x1C 0x00 0x00 0x40 0x00 0x00
Standard ID: 0x0C1       DLC: 8  Data: 0xA0 0x01 0x1F 0xE8 0x20 0x00 0x00 0x00
Standard ID: 0x0C5       DLC: 8  Data: 0x20 0x00 0x00 0x00 0x20 0x00 0x00 0x00
Standard ID: 0x1C7       DLC: 7  Data: 0x06 0xA0 0x79 0x5F 0x00 0x00 0x3E
Standard ID: 0x1F3       DLC: 3  Data: 0x40 0x7C 0x00
Standard ID: 0x1A1       DLC: 8  Data: 0x00 0x00 0x40 0x00 0x89 0x66 0x00 0x00
Standard ID: 0x1C5       DLC: 8  Data: 0x2C 0x34 0x2C 0x03 0x30 0x2C 0x03 0xFD
Standard ID: 0x0D1       DLC: 7  Data: 0x80 0x00 0xBF 0xFE 0x00 0xFE 0x00
Standard ID: 0x0F1       DLC: 6  Data: 0x28 0x00 0x00 0x40 0x00 0x00
Standard ID: 0x0C1       DLC: 8  Data: 0xB0 0x01 0x1F 0xE8 0x30 0x00 0x00 0x00
Standard ID: 0x3C9       DLC: 8  Data: 0x07 0x66 0x00 0x00 0x00 0x00 0x00 0x00
Standard ID: 0x3CB       DLC: 6  Data: 0x31 0x51 0x00 0x00 0x15 0x16
Standard ID: 0x0C5       DLC: 8  Data: 0x30 0x00 0x00 0x00 0x30 0x00 0x00 0x00
Standard ID: 0x3E7       DLC: 2  Data: 0x00 0x65
Standard ID: 0x0C9       DLC: 8  Data: 0x00 0x00 0x00 0x00 0x00 0x10 0x00 0xFF
Standard ID: 0x0F1       DLC: 6  Data: 0x34 0x00 0x00 0x40 0x00 0x00
Standard ID: 0x0C1       DLC: 8  Data: 0x80 0x01 0x1F 0xE8 0x00 0x00 0x00 0x00
Standard ID: 0x1E5       DLC: 8  Data: 0x44 0x00 0x39 0x70 0x00 0x00 0x01 0x29
Standard ID: 0x451       DLC: 6  Data: 0x00 0x00 0x00 0x00 0x00 0x00
Standard ID: 0x0C5       DLC: 8  Data: 0x00 0x00 0x00 0x00 0x00 0x00 0x00 0x00
Standard ID: 0x0F1       DLC: 6  Data: 0x00 0x00 0x00 0x40 0x00 0x00
Standard ID: 0x0C9       DLC: 8  Data: 0x00 0x00 0x00 0x07 0x00 0x10 0x00 0xFF
Standard ID: 0x1A3       DLC: 8  Data: 0x00 0x00 0x00 0x00 0x00 0x00 0x00 0x00
Standard ID: 0x1E1       DLC: 7  Data: 0x00 0x00 0x04 0x00 0x02 0x04 0xF0
Standard ID: 0x2D3       DLC: 8  Data: 0x00 0x00 0x00 0x00 0x00 0x00 0x00 0x00
Standard ID: 0x3F9       DLC: 8  Data: 0x00 0x03 0xF7 0x25 0xFA 0x00 0xEC 0x24
Standard ID: 0x3F1       DLC: 8  Data: 0x00 0xFF 0xFA 0x08 0x00 0x8F 0x0A 0x65
Standard ID: 0x0F1       DLC: 6  Data: 0x1C 0x00 0x00 0x40 0x00 0x00
Standard ID: 0x0D3       DLC: 8  Data: 0x2B 0xBC 0x00 0x07 0x00 0x10 0x00 0xFF
Standard ID: 0x0C1       DLC: 8  Data: 0xA0 0x01 0x1F 0xE8 0x20 0x00 0x00 0x00
Standard ID: 0x0D3       DLC: 8  Data: 0x2B 0xBC 0x00 0x0A 0x00 0x10 0x00 0xFF
Standard ID: 0x210       DLC: 4  Data: 0x02 0x00 0x01 0xFF
Standard ID: 0x370       DLC: 6  Data: 0x00 0x00 0x00 0x00 0x00 0x00
Standard ID: 0x0C5       DLC: 8  Data: 0x20 0x00 0x00 0x00 0x20 0x00 0x00 0x00
Standard ID: 0x0F1       DLC: 6  Data: 0x28 0x00 0x00 0x40 0x00 0x00
Standard ID: 0x0C1       DLC: 8  Data: 0xB0 0x01 0x1F 0xE8 0x30 0x00 0x00 0x00
Standard ID: 0x0C5       DLC: 8  Data: 0x30 0x00 0x00 0x00 0x30 0x00 0x00 0x00
Standard ID: 0x0D1       DLC: 7  Data: 0xC0 0x00 0xFF 0xF9 0x00 0xF9 0x00
Standard ID: 0x0C9       DLC: 8  Data: 0x00 0x00 0x00 0x0D 0x00 0x10 0x00 0xFF
Standard ID: 0x1A1       DLC: 8  Data: 0x00 0x00 0x40 0x00 0x89 0x66 0x00 0x00
Standard ID: 0x1F5       DLC: 8  Data: 0xED 0x00 0x00 0x0F 0x18 0x00 0x03 0x1C
Standard ID: 0x0F1       DLC: 6  Data: 0x34 0x00 0x00 0x40 0x00 0x00
Standard ID: 0x0C1       DLC: 8  Data: 0x80 0x01 0x1F 0xE8 0x00 0x00 0x00 0x00
Standard ID: 0x0D1       DLC: 7  Data: 0x00 0x00 0x00 0x00 0x00 0x00 0x00
Standard ID: 0x1CE       DLC: 4  Data: 0x00 0x00 0x00 0x00
Standard ID: 0x1F3       DLC: 3  Data: 0xC0 0xFC 0x00
Standard ID: 0x0D3       DLC: 8  Data: 0x2B 0xBC 0x00 0x0D 0x00 0x10 0x00 0xFF
Standard ID: 0x451       DLC: 6  Data: 0x00 0x00 0x00 0x00 0x00 0x00
Standard ID: 0x0C9       DLC: 8  Data: 0x00 0x00 0x00 0x00 0x00 0x10 0x00 0xFF
Standard ID: 0x0F1       DLC: 6  Data: 0x00 0x00 0x00 0x40 0x00 0x00
Standard ID: 0x0C1       DLC: 8  Data: 0x90 0x01 0x1F 0xE8 0x10 0x00 0x00 0x00
Standard ID: 0x1E5       DLC: 8  Data: 0x44 0x00 0x39 0x10 0x00 0x00 0x00 0xC9
Standard ID: 0x0C5       DLC: 8  Data: 0x10 0x00 0x00 0x00 0x10 0x00 0x00 0x00
Standard ID: 0x0F1       DLC: 6  Data: 0x1C 0x00 0x00 0x40 0x00 0x00
Standard ID: 0x0C9       DLC: 8  Data: 0x00 0x00 0x00 0x07 0x00 0x10 0x00 0xFF
Standard ID: 0x1A3       DLC: 8  Data: 0x00 0x00 0x00 0x00 0x00 0x00 0x00 0x00
Standard ID: 0x1C8       DLC: 8  Data: 0x40 0x00 0x00 0x00 0xFF 0xFF 0x3F 0xFF
Standard ID: 0x1E9       DLC: 8  Data: 0x0F 0xF0 0x00 0x06 0x00 0x08 0x00 0x00
Standard ID: 0x2D3       DLC: 8  Data: 0x00 0x00 0x00 0x00 0x00 0x00 0x00 0x00
Standard ID: 0x137       DLC: 8  Data: 0x00 0x00 0x00 0x00 0x00 0x00 0x00 0x00
Standard ID: 0x0F1       DLC: 6  Data: 0x28 0x00 0x00 0x40 0x00 0x00
Standard ID: 0x0D3       DLC: 8  Data: 0x2B 0xBC 0x00 0x07 0x00 0x10 0x00 0xFF
Standard ID: 0x0C1       DLC: 8  Data: 0xB0 0x01 0x1F 0xE8 0x30 0x00 0x00 0x00
Standard ID: 0x0D3       DLC: 8  Data: 0x2B 0xBC 0x00 0x0A 0x00 0x10 0x00 0xFF
Standard ID: 0x362       DLC: 4  Data: 0x00 0x00 0x00 0x00
Standard ID: 0x0C5       DLC: 8  Data: 0x30 0x00 0x00 0x00 0x30 0x00 0x00 0x00
Standard ID: 0x1E1       DLC: 7  Data: 0x00 0x00 0x04 0x00 0x00 0x0C 0xD0
Standard ID: 0x0F1       DLC: 6  Data: 0x34 0x00 0x00 0x40 0x00 0x00
Standard ID: 0x0C1       DLC: 8  Data: 0x80 0x01 0x1F 0xE8 0x00 0x00 0x00 0x00
Standard ID: 0x0C5       DLC: 8  Data: 0x00 0x00 0x00 0x00 0x00 0x00 0x00 0x00
Standard ID: 0x1CE       DLC: 4  Data: 0x10 0x00 0x07 0xFE
Standard ID: 0x1F3       DLC: 3  Data: 0x00 0x3C 0x00
Standard ID: 0x1A1       DLC: 8  Data: 0x00 0x00 0x40 0x00 0x89 0x66 0x00 0x00
Standard ID: 0x1C4       DLC: 8  Data: 0x6D 0x62 0xC0 0xC7 0x06 0x00 0x03 0xFD
Standard ID: 0x0D1       DLC: 7  Data: 0x00 0x00 0x3F 0xFC 0x00 0xFC 0x00
Standard ID: 0x0F1       DLC: 6  Data: 0x00 0x00 0x00 0x40 0x00 0x00
Standard ID: 0x0C1       DLC: 8  Data: 0x90 0x01 0x1F 0xE8 0x10 0x00 0x00 0x00
Standard ID: 0x1E5       DLC: 8  Data: 0x44 0x00 0x39 0x10 0x00 0x00 0x00 0xC9
Standard ID: 0x3CB       DLC: 6  Data: 0x31 0x51 0x00 0x00 0x15 0x16
Standard ID: 0x0C5       DLC: 8  Data: 0x10 0x00 0x00 0x00 0x10 0x00 0x00 0x00
Standard ID: 0x3E7       DLC: 2  Data: 0x00 0x65
Standard ID: 0x0C9       DLC: 8  Data: 0x00 0x00 0x00 0x00 0x00 0x10 0x00 0xFF
Standard ID: 0x0F1       DLC: 6  Data: 0x1C 0x00 0x00 0x40 0x00 0x00
Standard ID: 0x0C1       DLC: 8  Data: 0xA0 0x01 0x1F 0xE8 0x20 0x00 0x00 0x00
Standard ID: 0x0D1       DLC: 7  Data: 0x80 0x00 0xBF 0xFA 0x00 0xFA 0x00
Standard ID: 0x1CE       DLC: 4  Data: 0x18 0x00 0x07 0xFD
Standard ID: 0x1F3       DLC: 3  Data: 0x40 0x7C 0x00
Standard ID: 0x0C5       DLC: 8  Data: 0x20 0x00 0x00 0x00 0x20 0x00 0x00 0x00
Standard ID: 0x451       DLC: 6  Data: 0x00 0x00 0x00 0x00 0x00 0x00
Standard ID: 0x0F1       DLC: 6  Data: 0x28 0x00 0x00 0x40 0x00 0x00
Standard ID: 0x0C9       DLC: 8  Data: 0x00 0x00 0x00 0x07 0x00 0x10 0x00 0xFF
Standard ID: 0x1A3       DLC: 8  Data: 0x00 0x00 0x00 0x00 0x00 0x00 0x00 0x00
Standard ID: 0x1C4       DLC: 8  Data: 0x00 0x62 0xC0 0xC7 0x00 0x00 0x00 0x00
Standard ID: 0x3C1       DLC: 8  Data: 0x07 0x65 0x14 0x00 0x00 0x00 0x00 0x00
Standard ID: 0x0D3       DLC: 8  Data: 0x2B 0xBC 0x00 0x07 0x00 0x10 0x00 0xFF
Standard ID: 0x0F1       DLC: 6  Data: 0x34 0x00 0x00 0x40 0x00 0x00
Standard ID: 0x0C1       DLC: 8  Data: 0x80 0x01 0x1F 0xE8 0x00 0x00 0x00 0x00
Standard ID: 0x0C5       DLC: 8  Data: 0x00 0x00 0x00 0x00 0x00 0x00 0x00 0x00
Standard ID: 0x1C6       DLC: 8  Data: 0x00 0x00 0x00 0x00 0x00 0x00 0x00 0x00
Standard ID: 0x214       DLC: 6  Data: 0x06 0x00 0x01 0xFD 0x0C 0x01
Standard ID: 0x17D       DLC: 6  Data: 0x22 0x24 0x42 0xFF 0x00 0x00
Standard ID: 0x0D1       DLC: 7  Data: 0x00 0x00 0x00 0x00 0x00 0x00 0x00
Standard ID: 0x0F1       DLC: 6  Data: 0x00 0x00 0x00 0x40 0x00 0x00
Standard ID: 0x0C1       DLC: 8  Data: 0x90 0x01 0x1F 0xE8 0x10 0x00 0x00 0x00
Standard ID: 0x0C5       DLC: 8  Data: 0x10 0x00 0x00 0x00 0x10 0x00 0x00 0x00
Standard ID: 0x0D1       DLC: 7  Data: 0x40 0x00 0x7F 0xFF 0x00 0xFF 0x00
Standard ID: 0x1F3       DLC: 3  Data: 0x80 0xBC 0x00
Standard ID: 0x1A1       DLC: 8  Data: 0x00 0x00 0x40 0x00 0x89 0x66 0x00 0x00
Standard ID: 0x1C5       DLC: 8  Data: 0x2C 0x34 0x2C 0x03 0x30 0x2C 0x07 0xFF
Standard ID: 0x0F1       DLC: 6  Data: 0x1C 0x00 0x00 0x40 0x00 0x00
Standard ID: 0x0C9       DLC: 8  Data: 0x00 0x00 0x00 0x0D 0x00 0x10 0x00 0xFF
Standard ID: 0x0C1       DLC: 8  Data: 0xA0 0x01 0x1F 0xE8 0x20 0x00 0x00 0x00
Standard ID: 0x1C7       DLC: 7  Data: 0x06 0xA0 0x79 0x5F 0x00 0x00 0x3E
Standard ID: 0x0C5       DLC: 8  Data: 0x20 0x00 0x00 0x00 0x20 0x00 0x00 0x00
Standard ID: 0x0C9       DLC: 8  Data: 0x00 0x00 0x00 0x00 0x00 0x10 0x00 0xFF
Standard ID: 0x0D3       DLC: 8  Data: 0x2B 0xBC 0x00 0x00 0x00 0x10 0x00 0xFF
Standard ID: 0x0F1       DLC: 6  Data: 0x28 0x00 0x00 0x40 0x00 0x00
Standard ID: 0x0C1       DLC: 8  Data: 0xB0 0x01 0x1F 0xE8 0x30 0x00 0x00 0x00
Standard ID: 0x1C8       DLC: 8  Data: 0x80 0x00 0x00 0x00 0xFF 0xFE 0x3F 0xFE
Standard ID: 0x0F9       DLC: 8  Data: 0x00 0x00 0x00 0x00 0x00 0x00 0x00 0x00
Standard ID: 0x0F1       DLC: 6  Data: 0x34 0x00 0x00 0x40 0x00 0x00
Standard ID: 0x0C9       DLC: 8  Data: 0x00 0x00 0x00 0x07 0x00 0x10 0x00 0xFF
Standard ID: 0x1A3       DLC: 8  Data: 0x00 0x00 0x00 0x00 0x00 0x00 0x00 0x00
Standard ID: 0x1C4       DLC: 8  Data: 0x4A 0x62 0xC0 0xC7 0x04 0x00 0x05 0xFE
Standard ID: 0x1CE       DLC: 4  Data: 0x10 0x00 0x07 0xFE
Standard ID: 0x2D3       DLC: 8  Data: 0x00 0x00 0x00 0x00 0x00 0x00 0x00 0x00
Standard ID: 0x137       DLC: 8  Data: 0x00 0x00 0x00 0x00 0x00 0x00 0x00 0x00
Standard ID: 0x0D3       DLC: 8  Data: 0x2B 0xBC 0x00 0x07 0x00 0x10 0x00 0xFF
Standard ID: 0x0F1       DLC: 6  Data: 0x00 0x00 0x00 0x40 0x00 0x00
Standard ID: 0x0C1       DLC: 8  Data: 0x90 0x01 0x1F 0xE8 0x10 0x00 0x00 0x00
Standard ID: 0x0C9       DLC: 8  Data: 0x00 0x00 0x00 0x0A 0x00 0x10 0x00 0xFF
Standard ID: 0x348       DLC: 5  Data: 0x00 0x00 0x00 0x00 0x1B
Standard ID: 0x0C5       DLC: 8  Data: 0x10 0x00 0x00 0x00 0x10 0x00 0x00 0x00
Standard ID: 0x1E1       DLC: 7  Data: 0x00 0x00 0x04 0x00 0x03 0x08 0xE0
Standard ID: 0x0F1       DLC: 6  Data: 0x1C 0x00 0x00 0x40 0x00 0x00
Standard ID: 0x0C1       DLC: 8  Data: 0xA0 0x01 0x1F 0xE8 0x20 0x00 0x00 0x00
Standard ID: 0x0C5       DLC: 8  Data: 0x20 0x00 0x00 0x00 0x20 0x00 0x00 0x00
Standard ID: 0x1CE       DLC: 4  Data: 0x18 0x00 0x07 0xFD
Standard ID: 0x1F3       DLC: 3  Data: 0xC0 0xFC 0x00
Standard ID: 0x1A1       DLC: 8  Data: 0x00 0x00 0x40 0x00 0x89 0x66 0x00 0x00
Standard ID: 0x1C4       DLC: 8  Data: 0x6D 0x62 0xC0 0xC7 0x06 0x00 0x03 0xFD
Standard ID: 0x0D1       DLC: 7  Data: 0x80 0x00 0xBF 0xFA 0x00 0xFA 0x00
Standard ID: 0x0F1       DLC: 6  Data: 0x28 0x00 0x00 0x40 0x00 0x00
Standard ID: 0x0C1       DLC: 8  Data: 0xB0 0x01 0x1F 0xE8 0x30 0x00 0x00 0x00
Standard ID: 0x1E1       DLC: 7  Data: 0x00 0x00 0x04 0x00 0x00 0x0C 0xD0
Standard ID: 0x1F3       DLC: 3  Data: 0x00 0x3C 0x00
Standard ID: 0x0C5       DLC: 8  Data: 0x30 0x00 0x00 0x00 0x30 0x00 0x00 0x00
Standard ID: 0x3C9       DLC: 8  Data: 0x07 0x66 0x00 0x00 0x00 0x00 0x00 0x00
Standard ID: 0x0D3       DLC: 8  Data: 0x2B 0xBC 0x00 0x00 0x00 0x10 0x00 0xFF
Standard ID: 0x0F1       DLC: 6  Data: 0x34 0x00 0x00 0x40 0x00 0x00
Standard ID: 0x0C1       DLC: 8  Data: 0x80 0x01 0x1F 0xE8 0x00 0x00 0x00 0x00
Standard ID: 0x1C8       DLC: 8  Data: 0xC0 0x00 0x00 0x00 0xFF 0xFD 0x3F 0xFD
Standard ID: 0x232       DLC: 7  Data: 0x00 0x00 0x00 0x00 0x00 0x00 0x00
Standard ID: 0x0C9       DLC: 8  Data: 0x00 0x00 0x00 0x00 0x00 0x10 0x00 0xFF
Standard ID: 0x451       DLC: 6  Data: 0x00 0x00 0x00 0x00 0x00 0x00
Standard ID: 0x0F1       DLC: 6  Data: 0x00 0x00 0x00 0x40 0x00 0x00
Standard ID: 0x0C9       DLC: 8  Data: 0x00 0x00 0x00 0x07 0x00 0x10 0x00 0xFF
Standard ID: 0x1A3       DLC: 8  Data: 0x00 0x00 0x00 0x00 0x00 0x00 0x00 0x00
Standard ID: 0x1C4       DLC: 8  Data: 0x00 0x62 0xC0 0xC7 0x00 0x00 0x00 0x00
Standard ID: 0x3C1       DLC: 8  Data: 0x07 0x65 0x14 0x00 0x00 0x00 0x00 0x00
Standard ID: 0x0D3       DLC: 8  Data: 0x2B 0xBC 0x00 0x07 0x00 0x10 0x00 0xFF
Standard ID: 0x0F1       DLC: 6  Data: 0x1C 0x00 0x00 0x40 0x00 0x00
Standard ID: 0x0C1       DLC: 8  Data: 0xA0 0x01 0x1F 0xE8 0x20 0x00 0x00 0x00
Standard ID: 0x0C5       DLC: 8  Data: 0x20 0x00 0x00 0x00 0x20 0x00 0x00 0x00
Standard ID: 0x0D3       DLC: 8  Data: 0x2B 0xBC 0x00 0x0A 0x00 0x10 0x00 0xFF
Standard ID: 0x232       DLC: 7  Data: 0x00 0x00 0x00 0x00 0x00 0x00 0x00
Standard ID: 0x365       DLC: 4  Data: 0x00 0x00 0x00 0x00
Standard ID: 0x0D1       DLC: 7  Data: 0x80 0x00 0xBF 0xFE 0x00 0xFE 0x00
Standard ID: 0x0F1       DLC: 6  Data: 0x28 0x00 0x00 0x40 0x00 0x00
Standard ID: 0x0C1       DLC: 8  Data: 0xB0 0x01 0x1F 0xE8 0x30 0x00 0x00 0x00
Standard ID: 0x0C5       DLC: 8  Data: 0x30 0x00 0x00 0x00 0x30 0x00 0x00 0x00
Standard ID: 0x0D1       DLC: 7  Data: 0xC0 0x00 0xFF 0xFD 0x00 0xFD 0x00
Standard ID: 0x0C9       DLC: 8  Data: 0x00 0x00 0x00 0x0D 0x00 0x10 0x00 0xFF
Standard ID: 0x1A1       DLC: 8  Data: 0x00 0x00 0x40 0x00 0x89 0x66 0x00 0x00
Standard ID: 0x1F5       DLC: 8  Data: 0xED 0x00 0x00 0x0F 0x18 0x00 0x03 0x1C
Standard ID: 0x0F1       DLC: 6  Data: 0x34 0x00 0x00 0x40 0x00 0x00
Standard ID: 0x0C1       DLC: 8  Data: 0x80 0x01 0x1F 0xE8 0x00 0x00 0x00 0x00
Standard ID: 0x0D1       DLC: 7  Data: 0x00 0x00 0x3F 0xFC 0x00 0xFC 0x00
Standard ID: 0x1E9       DLC: 8  Data: 0x0F 0xF6 0x00 0x06 0x00 0x08 0x00 0x00
Standard ID: 0x0D3       DLC: 8  Data: 0x2B 0xBC 0x00 0x0D 0x00 0x10 0x00 0xFF
Standard ID: 0x0C9       DLC: 8  Data: 0x00 0x00 0x00 0x00 0x00 0x10 0x00 0xFF
Standard ID: 0x0D3       DLC: 8  Data: 0x2B 0xBC 0x00 0x00 0x00 0x10 0x00 0xFF
Standard ID: 0x0F1       DLC: 6  Data: 0x00 0x00 0x00 0x40 0x00 0x00
Standard ID: 0x0C1       DLC: 8  Data: 0x90 0x01 0x1F 0xE8 0x10 0x00 0x00 0x00
Standard ID: 0x1C8       DLC: 8  Data: 0x00 0x00 0x00 0x00 0x00 0x00 0x00 0x00
Standard ID: 0x1F3       DLC: 3  Data: 0x80 0xBC 0x00
Standard ID: 0x0F9       DLC: 8  Data: 0x00 0x00 0x00 0x00 0x00 0x00 0x00 0x00
Standard ID: 0x0F1       DLC: 6  Data: 0x1C 0x00 0x00 0x40 0x00 0x00
Standard ID: 0x0C9       DLC: 8  Data: 0x00 0x00 0x00 0x07 0x00 0x10 0x00 0xFF
