(1707835613.794051) COM6 3E9#0000800000008000
(1707835613.794051) COM6 451#000000000000
(1707835613.794051) COM6 3C9#0766423C74B6E353
(1707835613.794051) COM6 0C9#0000000000500000
(1707835613.794051) COM6 1BC#480100007C000000
(1707835613.794051) COM6 0F1#1C0000400000
(1707835613.794051) COM6 0C1#1000000010000000
(1707835613.794051) COM6 0C5#1000000010000000
(1707835613.794051) COM6 0C9#0000000000500000
(1707835613.794051) COM6 0D1#40007FFB00FB00
(1707835613.794051) COM6 1BC#480100007C000000
(1707835613.794051) COM6 1C8#0000000000000000
(1707835613.794051) COM6 1E1#000004000018D0
(1707835613.794051) COM6 1E5#44FFA0700000028F
(1707835613.794051) COM6 3F9#8000000000000007
(1707835613.794051) COM6 2C5#0000000000000000
(1707835613.794051) COM6 1F3#003C00
(1707835613.794051) COM6 0C9#0000000000500000
(1707835613.794051) COM6 1BC#480100007C000000
(1707835613.794051) COM6 0F1#280000400000
(1707835613.794051) COM6 0C1#2000000020000000
(1707835613.794051) COM6 0C5#2000000020000000
(1707835613.794051) COM6 0D1#8000BFFA00FA00
(1707835613.794051) COM6 0C9#0000000000500000
(1707835613.811293) COM6 1C8#40000000FFFF3FFF
(1707835613.811293) COM6 1BC#480100007C000000
(1707835613.811293) COM6 1E5#44FFA0100000022F
(1707835613.811293) COM6 185#03FB
(1707835613.811293) COM6 1C6#0000000000C3FFFD
(1707835613.811293) COM6 1C7#06A0F95D00003E
(1707835613.811293) COM6 1CE#180007FD
(1707835613.811293) COM6 1E9#0000000600080000
(1707835613.811293) COM6 1F5#0000000F00000700
(1707835613.811293) COM6 232#00000000000000
(1707835613.811293) COM6 451#000000000000
(1707835613.811293) COM6 4D1#E900000000000000
(1707835613.811293) COM6 0C9#0000000000500000
(1707835613.811293) COM6 1BC#480100007C000000
(1707835613.811293) COM6 0F1#340000400000
(1707835613.811293) COM6 0C9#0000000000500000
(1707835613.811293) COM6 0C1#3000000030000000
(1707835613.811293) COM6 0C5#3000000030000000
(1707835613.811293) COM6 0D1#C000FFF900F900
(1707835613.811293) COM6 1BC#480100007C000000
(1707835613.811293) COM6 1C8#80000000FFFE3FFE
(1707835613.811293) COM6 1E5#44FFA0300000024F
(1707835613.811293) COM6 4C1#0000740000000000
(1707835613.811293) COM6 1C1#0000000000000000
(1707835613.811293) COM6 0C9#0000000000500000
(1707835613.811293) COM6 1BC#480100007C000000
(1707835613.811293) COM6 0F1#000000400000
(1707835613.813293) COM6 0C9#0000000000500000
(1707835613.813293) COM6 0C1#0000000000000000
(1707835613.813293) COM6 0C5#0000000000000000
(1707835613.825392) COM6 0D1#00000000000000
(1707835613.825392) COM6 1BC#480100007C000000
(1707835613.825392) COM6 1C8#C0000000FFFD3FFD
(1707835613.825392) COM6 1E1#00000400011CC0
(1707835613.825392) COM6 1E5#44FFA0500000026F
(1707835613.825392) COM6 185#03FC
(1707835613.825392) COM6 1C6#0000000000000000
(1707835613.825392) COM6 1C7#06A0396000003E
(1707835613.825392) COM6 1CE#00000000
(1707835613.825392) COM6 1E9#0000000600060000
(1707835613.825392) COM6 232#00000000000000
(1707835613.825392) COM6 3D1#1000000000000000
(1707835613.825392) COM6 1F3#407C00
(1707835613.825392) COM6 1BD#0000000000000000
(1707835613.825392) COM6 0C9#0000000000500000
(1707835613.825392) COM6 1BC#480100007C000000
(1707835613.825392) COM6 451#000000000000
(1707835613.825392) COM6 0F1#1C0000400000
(1707835613.825392) COM6 0C9#0000000000500000
(1707835613.825392) COM6 0C1#1000000010000000
(1707835613.825392) COM6 0C5#1000000010000000
(1707835613.825392) COM6 0D1#40007FFF00FF00
(1707835613.825392) COM6 1BC#480100007C000000
(1707835613.825392) COM6 1C8#0000000000000000
(1707835613.825392) COM6 1E5#44FFA0700000028F
(1707835613.825392) COM6 210#00000000
(1707835613.825392) COM6 214#000000000000
(1707835613.825392) COM6 2F9#03000000000000
(1707835613.825392) COM6 348#000000001B
(1707835613.843385) COM6 34A#000000001B
(1707835613.843385) COM6 362#00000000
(1707835613.843385) COM6 365#00000000
(1707835613.843385) COM6 370#000000000000
(1707835613.843385) COM6 3E9#0000800000008000
(1707835613.843385) COM6 3C9#0766423C74B6E353
(1707835613.843385) COM6 0C9#0000000000500000
(1707835613.843385) COM6 1BC#480100007C000000
(1707835613.843385) COM6 0F1#280000400000
(1707835613.843385) COM6 0C9#0000000000500000
(1707835613.843385) COM6 0C1#2000000020000000
(1707835613.843385) COM6 0C5#2000000020000000
(1707835613.843385) COM6 0D1#8000BFFE00FE00
(1707835613.843385) COM6 120#007E791000
(1707835613.843385) COM6 1BC#480100007C000000
(1707835613.843385) COM6 1C8#40000000FFFF3FFF
(1707835613.843385) COM6 1E5#44FFA0100000022F
(1707835613.843385) COM6 185#03FC
(1707835613.843385) COM6 1C6#000000000043FFFF
(1707835613.843385) COM6 1C7#06A0795F00003E
(1707835613.843385) COM6 1CE#080007FF
(1707835613.843385) COM6 1E9#0000000600060000
(1707835613.843385) COM6 232#00000000000000
(1707835613.843385) COM6 3F9#8000000000000007
(1707835613.843385) COM6 12A#0000605D00008080
(1707835613.843385) COM6 2C5#0000000000000000
(1707835613.843385) COM6 0C9#0000000000500000
(1707835613.843385) COM6 1BC#480100007C000000
(1707835613.843385) COM6 135#04080D0002180000
(1707835613.843385) COM6 0F1#340000400000
(1707835613.843385) COM6 0C1#3000000030000000
(1707835613.858344) COM6 0C5#3000000030000000
(1707835613.858344) COM6 0C9#0000000000500000
(1707835613.858344) COM6 0D1#C000FFFD00FD00
(1707835613.858344) COM6 137#0000000000000000
(1707835613.858344) COM6 1BC#480100007C000000
(1707835613.858344) COM6 1C8#80000000FFFE3FFE
(1707835613.858344) COM6 1E5#44FFA0300000024F
(1707835613.858344) COM6 1F5#0000000F00000700
(1707835613.858344) COM6 4D1#E900000000000000
(1707835613.858344) COM6 139#0000000000000000
(1707835613.858344) COM6 0C9#0000000000500000
(1707835613.858344) COM6 1BC#480100007C000000
(1707835613.858344) COM6 140#000202
(1707835613.858344) COM6 0F1#000000400000
(1707835613.858344) COM6 0C9#0000000000500000
(1707835613.858344) COM6 0C1#0000000000000000
(1707835613.858344) COM6 0C5#0000000000000000
(1707835613.858344) COM6 0D1#00003FFC00FC00
(1707835613.858344) COM6 160#803C96B503
(1707835613.858344) COM6 1BC#480100007C000000
(1707835613.858344) COM6 1C8#C0000000FFFD3FFD
(1707835613.858344) COM6 1E5#44FFA0500000026F
(1707835613.858344) COM6 185#03FC
(1707835613.858344) COM6 1C6#000000000083FFFE
(1707835613.858344) COM6 1C7#06A0B95E00003E
(1707835613.858344) COM6 1CE#100007FE
(1707835613.858344) COM6 1E9#0000000600060000
(1707835613.858344) COM6 232#00000000000000
(1707835613.858344) COM6 4C1#0000740000000000
(1707835613.858344) COM6 1E1#000004000210F0
(1707835613.858344) COM6 1C1#0000000000000000
(1707835613.858344) COM6 0C9#0000000000500000
(1707835613.873649) COM6 1BC#480100007C000000
(1707835613.873649) COM6 1F1#AE0F173E18000072
(1707835613.873649) COM6 0F1#1C0000400000
(1707835613.873649) COM6 0C9#0000000000500000
(1707835613.873649) COM6 1BC#480100007C000000
(1707835613.873649) COM6 0C1#1000000010000000
(1707835613.873649) COM6 0C5#1000000010000000
(1707835613.873649) COM6 0D1#40007FFB00FB00
(1707835613.873649) COM6 1C8#0000000000000000
(1707835613.873649) COM6 1E5#44FFA0700000028F
(1707835613.873649) COM6 1F3#80BC00
(1707835613.873649) COM6 3D1#1000000000000000
(1707835613.873649) COM6 1BD#0000000000000000
(1707835613.873649) COM6 32A#0000000000000000
(1707835613.873649) COM6 0C9#0000000000500000
(1707835613.873649) COM6 1BC#480100007C000000
(1707835613.873649) COM6 3C9#0766000000000000
(1707835613.873649) COM6 0F1#280000400000
(1707835613.873649) COM6 0C9#0000000000500000
(1707835613.873649) COM6 1BC#480100007C000000
(1707835613.873649) COM6 0C1#2000000020000000
(1707835613.888568) COM6 0C5#2000000020000000
(1707835613.888568) COM6 0D1#8000BFFA00FA00
(1707835613.888568) COM6 1C8#40000000FFFF3FFF
(1707835613.888568) COM6 1E1#000004000314E0
(1707835613.888568) COM6 1E5#44FFA0100000022F
(1707835613.888568) COM6 185#03FC
(1707835613.888568) COM6 1C6#0000000000C3FFFD
(1707835613.888568) COM6 1C7#06A0F95D00003E
(1707835613.888568) COM6 1CE#180007FD
(1707835613.888568) COM6 1E9#0000000600060000
(1707835613.888568) COM6 232#00000000000000
(1707835613.888568) COM6 210#020001FF
(1707835613.888568) COM6 214#020001FF0403
(1707835613.888568) COM6 2F9#0B000000000007
(1707835613.888568) COM6 1F3#C0FC00
(1707835613.888568) COM6 348#000000001B
(1707835613.888568) COM6 34A#000000001B
(1707835613.888568) COM6 362#00000000
(1707835613.888568) COM6 365#00000000
(1707835613.888568) COM6 370#000000000000
(1707835613.888568) COM6 17D#2A2443FF2000
(1707835613.888568) COM6 182#000000
(1707835613.888568) COM6 234#00000000
(1707835613.888568) COM6 2F1#0000000000
(1707835613.888568) COM6 3E9#0000800000008000
(1707835613.888568) COM6 500#303003B9
(1707835613.888568) COM6 3C9#0766423C74B6E353
(1707835613.888568) COM6 3CB#2FFF00001005
(1707835613.888568) COM6 0C9#0000000000500000
(1707835613.888568) COM6 773#00280000000000
(1707835613.888568) COM6 1BC#480100007C000000
(1707835613.888568) COM6 780#00310000000000
(1707835613.888568) COM6 0F1#340000400000
(1707835613.888568) COM6 0C9#0000000000500000
(1707835613.888568) COM6 1BC#480100007C000000
(1707835613.888568) COM6 0C1#3000000030000000
(1707835613.888568) COM6 0C5#3000000030000000
(1707835613.888568) COM6 0D1#C000FFF900F900
(1707835613.888568) COM6 1C8#80000000FFFE3FFE
(1707835613.888568) COM6 1E5#44FFA0300000024F
(1707835613.888568) COM6 3E7#0068
(1707835613.888568) COM6 3F9#8000000000000007
(1707835613.888568) COM6 2C5#0000000000000000
(1707835613.888568) COM6 3F1#00FFFA0808FF0A68
(1707835613.888568) COM6 0C9#0000000000500000
(1707835613.888568) COM6 1BC#480100007C000000
(1707835613.888568) COM6 451#000000000000
(1707835613.891563) COM6 0F1#000000400000
(1707835613.893398) COM6 0C9#0000000000500000
(1707835613.893398) COM6 0C1#0000000000000000
(1707835613.903899) COM6 0C5#0000000000000000
(1707835613.903899) COM6 0D1#00000000000000
(1707835613.903899) COM6 1BC#480100007C000000
(1707835613.903899) COM6 1C8#C0000000FFFD3FFD
(1707835613.903899) COM6 1E5#44FFA0500000026F
(1707835613.903899) COM6 185#03FC
(1707835613.903899) COM6 1C6#0000000000000000
(1707835613.903899) COM6 1C7#06A0396000003E
(1707835613.903899) COM6 1CE#00000000
(1707835613.903899) COM6 1E9#0000000600060000
(1707835613.903899) COM6 1F5#0000000F00000700
(1707835613.903899) COM6 232#00000000000000
(1707835613.903899) COM6 4C5#000000
(1707835613.903899) COM6 4D1#E900000000000000
(1707835613.903899) COM6 0C9#0000000000500000
(1707835613.903899) COM6 1BC#480100007C000000
(1707835613.903899) COM6 4D7#013986DAA2
(1707835613.903899) COM6 0F1#1C0000400000
(1707835613.903899) COM6 0C9#0000000000500000
(1707835613.903899) COM6 1BC#480100007C000000
(1707835613.903899) COM6 0C1#1000000010000000
(1707835613.903899) COM6 0C5#1000000010000000
(1707835613.903899) COM6 0D1#40007FFF00FF00
(1707835613.903899) COM6 1C8#0000000000000000
(1707835613.921190) COM6 1E1#000004000018D0
(1707835613.921190) COM6 1E5#44FFA0700000028F
(1707835613.921190) COM6 4C1#0000740000000000
(1707835613.921190) COM6 1C1#0000000000000000
(1707835613.921190) COM6 1F3#003C00
(1707835613.921190) COM6 0C9#0000000000500000
(1707835613.921190) COM6 1BC#480100007C000000
(1707835613.921190) COM6 451#000000000000
(1707835613.921190) COM6 0F1#280000400000
(1707835613.921190) COM6 0C9#0000000000500000
(1707835613.921190) COM6 1BC#480100007C000000
(1707835613.921190) COM6 0C1#2000000020000000
(1707835613.921190) COM6 0C5#2000000020000000
(1707835613.921190) COM6 0D1#8000BFFE00FE00
(1707835613.921190) COM6 1C8#40000000FFFF3FFF
(1707835613.921190) COM6 1E5#44FFA0100000022F
(1707835613.921190) COM6 185#03FC
(1707835613.921190) COM6 1C6#000000000043FFFF
(1707835613.921190) COM6 1C7#06A0795F00003E
(1707835613.921190) COM6 1CE#080007FF
(1707835613.921190) COM6 1E9#0000000600060000
(1707835613.921190) COM6 232#00000000000000
(1707835613.921190) COM6 3D1#1000000000000000
(1707835613.921190) COM6 4E1#4B34303238383139
(1707835613.921190) COM6 1BD#0000000000000000
(1707835613.921190) COM6 4E9#E14001094625
(1707835613.921190) COM6 0C9#0000000000500000
(1707835613.921190) COM6 1BC#480100007C000000
(1707835613.921190) COM6 514#3056305845503638
(1707835613.921190) COM6 0F1#340000400000
(1707835613.935078) COM6 0C9#0000000000500000
(1707835613.935078) COM6 1BC#480100007C000000
(1707835613.935078) COM6 3E9#0000800000008000
(1707835613.935078) COM6 0C1#3000000030000000
(1707835613.935078) COM6 0C5#3000000030000000
(1707835613.935078) COM6 0D1#C000FFFD00FD00
(1707835613.935078) COM6 1C8#80000000FFFE3FFE
(1707835613.935078) COM6 1E5#44FFA0300000024F
(1707835613.935078) COM6 210#040001FE
(1707835613.935078) COM6 214#040001FE0802
(1707835613.935078) COM6 2F9#1300000000000A
(1707835613.935078) COM6 348#000000001B
(1707835613.935078) COM6 34A#000000001B
(1707835613.935078) COM6 362#00000000
(1707835613.935078) COM6 365#00000000
(1707835613.935078) COM6 370#000000000000
(1707835613.935078) COM6 3C9#0766423C74B6E353
(1707835613.935078) COM6 451#000000000000
(1707835613.935078) COM6 0C9#0000000000500000
(1707835613.935078) COM6 1BC#480100007C000000
(1707835613.935078) COM6 52A#242434363736
(1707835613.935078) COM6 0F1#000000400000
(1707835613.935078) COM6 0C9#0000000000500000
(1707835613.935078) COM6 1BC#480100007C000000
(1707835613.935078) COM6 3F9#8000000000000007
(1707835613.935078) COM6 0C1#0000000000000000
(1707835613.935078) COM6 0C5#0000000000000000
(1707835613.935078) COM6 0D1#00003FFC00FC00
(1707835613.935078) COM6 12A#0000605D00008080
(1707835613.935078) COM6 1C8#C0000000FFFD3FFD
(1707835613.935078) COM6 1E5#44FFA0500000026F
(1707835613.935078) COM6 185#03FC
(1707835613.935078) COM6 1C6#000000000083FFFE
(1707835613.935078) COM6 1C7#06A0B95E00003E
(1707835613.935078) COM6 1CE#100007FE
(1707835613.951169) COM6 1E9#0000000600080000
(1707835613.951169) COM6 232#00000000000000
(1707835613.951169) COM6 2C5#0000000000000000
(1707835613.951169) COM6 135#04080D0002180000
(1707835613.951169) COM6 0C9#0000000000500000
(1707835613.951169) COM6 1BC#480100007C000000
(1707835613.951169) COM6 137#0000000000000000
(1707835613.951169) COM6 0F1#1C0000400000
(1707835613.951169) COM6 0C9#0000000000500000
(1707835613.951169) COM6 1BC#480100007C000000
(1707835613.951169) COM6 0C1#1000000010000000
(1707835613.951169) COM6 0C5#1000000010000000
(1707835613.951169) COM6 0D1#40007FFB00FB00
(1707835613.951169) COM6 139#0000000000000000
(1707835613.951169) COM6 1C8#0000000000000000
(1707835613.951169) COM6 1E5#44FFA0700000028F
(1707835613.951169) COM6 1F5#0000000F00000700
(1707835613.951169) COM6 4D1#E900000000000000
(1707835613.951169) COM6 160#803C96B503
(1707835613.951169) COM6 0C9#0000000000500000
(1707835613.951169) COM6 1BC#480100007C000000
(1707835613.951169) COM6 1E1#00000400011CC0
(1707835613.951169) COM6 0F1#280000400000
(1707835613.967132) COM6 0C9#0000000000500000
(1707835613.967132) COM6 1BC#480100007C000000
(1707835613.967132) COM6 4C1#0000740000000000
(1707835613.967132) COM6 0C1#2000000020000000
(1707835613.967132) COM6 0C5#2000000020000000
(1707835613.967132) COM6 0D1#8000BFFA00FA00
(1707835613.967132) COM6 1C1#0000000000000000
(1707835613.967132) COM6 1C8#40000000FFFF3FFF
(1707835613.967132) COM6 1E5#44FFA0100000022F
(1707835613.967132) COM6 185#03FC
(1707835613.967132) COM6 1C6#0000000000C3FFFD
(1707835613.967132) COM6 1C7#06A0F95D00003E
(1707835613.967132) COM6 1CE#180007FD
(1707835613.967132) COM6 1E9#0000000600080000
(1707835613.967132) COM6 1F1#AE0F173E18000072
(1707835613.967132) COM6 232#00000000000000
(1707835613.967132) COM6 1F3#407C00
(1707835613.967132) COM6 0C9#0000000000500000
(1707835613.967132) COM6 1BC#480100007C000000
(1707835613.967132) COM6 32A#0000000000000000
(1707835613.967132) COM6 0F1#340000400000
(1707835613.967132) COM6 0C9#0000000000500000
(1707835613.967132) COM6 1BC#480100007C000000
(1707835613.967132) COM6 3D1#1000000000000000
(1707835613.967132) COM6 0C1#3000000030000000
(1707835613.967132) COM6 0C5#3000000030000000
(1707835613.967132) COM6 0D1#C000FFF900F900
(1707835613.967132) COM6 1BD#0000000000000000
(1707835613.967132) COM6 1C8#80000000FFFE3FFE
(1707835613.967132) COM6 1E1#000004000210F0
(1707835613.967132) COM6 1E5#44FFA0300000024F
(1707835613.967132) COM6 1F3#80BC00
(1707835613.967132) COM6 0C9#0000000000500000
(1707835613.967132) COM6 1BC#480100007C000000
(1707835613.969431) COM6 3C9#0766000000000000
(1707835613.971840) COM6 0F1#000000400000
(1707835613.983282) COM6 0C9#0000000000500000
(1707835613.983282) COM6 1BC#480100007C000000
(1707835613.983282) COM6 3E9#0000800000008000
(1707835613.983282) COM6 0C1#0000000000000000
(1707835613.983282) COM6 0C5#0000000000000000
(1707835613.983282) COM6 0D1#00000000000000
(1707835613.983282) COM6 1C8#C0000000FFFD3FFD
(1707835613.983282) COM6 1E5#44FFA0500000026F
(1707835613.983282) COM6 185#03FC
(1707835613.983282) COM6 1C6#0000000000000000
(1707835613.983282) COM6 1C7#06A0396000003E
(1707835613.983282) COM6 1CE#00000000
(1707835613.983282) COM6 1E9#0000000600080000
(1707835613.983282) COM6 232#00000000000000
(1707835613.983282) COM6 210#060001FD
(1707835613.983282) COM6 214#060001FD0C01
(1707835613.983282) COM6 2F9#1B00000000000D
(1707835613.983282) COM6 348#000000001B
(1707835613.983282) COM6 34A#000000001B
(1707835613.983282) COM6 362#00000000
(1707835613.983282) COM6 365#00000000
(1707835613.983282) COM6 370#000000000000
(1707835613.983282) COM6 17D#2A2443FF2000
(1707835613.983282) COM6 182#000000
(1707835613.983282) COM6 234#00000000
(1707835613.983282) COM6 2F1#0000000000
(1707835613.983282) COM6 3C9#0766423C74B6E353
(1707835613.983282) COM6 3CB#2FFF00001005
(1707835613.983282) COM6 0C9#0000000000500000
(1707835613.983282) COM6 1BC#480100007C000000
(1707835613.983282) COM6 3E7#0068
(1707835613.983282) COM6 0F1#1C0000400000
(1707835613.983282) COM6 0C9#0000000000500000
(1707835613.983282) COM6 1BC#480100007C000000
(1707835613.983282) COM6 3F9#8000000000000007
(1707835613.983282) COM6 148#00
(1707835613.983282) COM6 2C5#0000000000000000
(1707835613.998996) COM6 0C1#1000000010000000
(1707835613.998996) COM6 0C5#1000000010000000
(1707835613.998996) COM6 0D1#40007FFF00FF00
(1707835613.998996) COM6 1C8#0000000000000000
(1707835613.998996) COM6 1E5#44FFA0700000028F
(1707835613.998996) COM6 451#000000000000
(1707835613.998996) COM6 530#00000000
(1707835613.998996) COM6 0C9#0000000000500000
(1707835613.998996) COM6 1BC#480100007C000000
(1707835613.998996) COM6 0F1#280000400000
(1707835613.998996) COM6 0C9#0000000000500000
(1707835613.998996) COM6 1BC#480100007C000000
(1707835613.998996) COM6 1F5#0000000F00000700
(1707835613.998996) COM6 0C1#2000000020000000
(1707835613.998996) COM6 0C5#2000000020000000
(1707835613.998996) COM6 0D1#8000BFFE00FE00
(1707835613.998996) COM6 1C8#40000000FFFF3FFF
(1707835613.998996) COM6 1E1#000004000314E0
(1707835613.998996) COM6 1E5#44FFA0100000022F
(1707835613.998996) COM6 185#03FC
(1707835613.998996) COM6 1C6#000000000043FFFF
(1707835613.998996) COM6 1C7#06A0795F00003E
(1707835613.998996) COM6 1CE#080007FF
(1707835613.998996) COM6 1E9#0000000600080000
(1707835613.998996) COM6 232#00000000000000
(1707835613.998996) COM6 4D1#E900000000000000
(1707835613.998996) COM6 1F3#C0FC00
(1707835613.998996) COM6 0C9#0000000000500000
(1707835613.998996) COM6 1BC#480100007C000000
(1707835613.998996) COM6 451#000000000000
(1707835614.001860) COM6 0F1#340000400000
(1707835614.013990) COM6 0C9#0000000000500000
(1707835614.013990) COM6 1BC#480100007C000000
(1707835614.013990) COM6 4C1#0000740000000000
(1707835614.013990) COM6 1C1#0000000000000000
(1707835614.013990) COM6 0C1#3000000030000000
(1707835614.013990) COM6 0C5#3000000030000000
(1707835614.013990) COM6 0D1#C000FFFD00FD00
(1707835614.013990) COM6 1C8#80000000FFFE3FFE
(1707835614.015015) COM6 1E5#44FFA0300000024F
(1707835614.015015) COM6 0C9#0000000000500000
(1707835614.015015) COM6 1BC#480100007C000000
(1707835614.015015) COM6 0F1#000000400000
(1707835614.015015) COM6 0C9#0000000000500000
(1707835614.015015) COM6 1BC#480100007C000000
(1707835614.015015) COM6 3D1#1000000000000000
(1707835614.015015) COM6 1BD#0000000000000000
(1707835614.015015) COM6 0C1#0000000000000000
(1707835614.015015) COM6 0C5#0000000000000000
(1707835614.015015) COM6 0D1#00003FFC00FC00
(1707835614.015015) COM6 1C8#C0000000FFFD3FFD
(1707835614.015015) COM6 1E5#44FFA0500000026F
(1707835614.015015) COM6 185#03FC
(1707835614.031896) COM6 1C6#000000000083FFFE
(1707835614.031896) COM6 1C7#06A0B95E00003E
(1707835614.031896) COM6 1CE#100007FE
(1707835614.031896) COM6 1E9#0000000600060000
(1707835614.031896) COM6 232#00000000000000
(1707835614.031896) COM6 451#000000000000
(1707835614.031896) COM6 0C9#0000000000500000
(1707835614.031896) COM6 1BC#480100007C000000
(1707835614.031896) COM6 0F1#1C0000400000
(1707835614.031896) COM6 0C9#0000000000500000
(1707835614.031896) COM6 1BC#480100007C000000
(1707835614.031896) COM6 3E9#0000800000008000
(1707835614.031896) COM6 3C9#0766423C74B6E353
(1707835614.031896) COM6 0C1#1000000010000000
(1707835614.031896) COM6 0C5#1000000010000000
(1707835614.031896) COM6 0D1#40007FFB00FB00
(1707835614.031896) COM6 1C8#0000000000000000
(1707835614.031896) COM6 1E1#000004000018D0
(1707835614.031896) COM6 1E5#44FFA0700000028F
(1707835614.031896) COM6 210#00000000
(1707835614.031896) COM6 214#000000000000
(1707835614.031896) COM6 2F9#23000000000000
(1707835614.031896) COM6 348#000000001B
(1707835614.031896) COM6 34A#000000001B
(1707835614.031896) COM6 362#00000000
(1707835614.031896) COM6 365#00000000
(1707835614.031896) COM6 370#000000000000
(1707835614.031896) COM6 0C9#0000000000500000
(1707835614.031896) COM6 1F3#003C00
(1707835614.031896) COM6 1BC#480100007C000000
(1707835614.031896) COM6 0F1#280000400000
(1707835614.031896) COM6 0C9#0000000000500000
(1707835614.045884) COM6 1BC#480100007C000000
(1707835614.045884) COM6 3F9#8000000000000007
(1707835614.045884) COM6 2C5#0000000000000000
(1707835614.045884) COM6 0C1#2000000020000000
(1707835614.045884) COM6 0C5#2000000020000000
(1707835614.045884) COM6 0D1#8000BFFA00FA00
(1707835614.045884) COM6 12A#0000605D00008080
(1707835614.045884) COM6 1C8#40000000FFFF3FFF
(1707835614.045884) COM6 1E5#44FFA0100000022F
(1707835614.045884) COM6 185#03FC
(1707835614.045884) COM6 1C6#0000000000C3FFFD
(1707835614.045884) COM6 1C7#06A0F95D00003E
(1707835614.045884) COM6 1CE#180007FD
(1707835614.045884) COM6 1E9#0000000600080000
(1707835614.045884) COM6 232#00000000000000
(1707835614.045884) COM6 135#04080D0002180000
(1707835614.045884) COM6 0C9#0000000000500000
(1707835614.045884) COM6 1BC#480100007C000000
(1707835614.045884) COM6 137#0000000000000000
(1707835614.045884) COM6 0F1#340000400000
(1707835614.045884) COM6 0C9#0000000000500000
(1707835614.045884) COM6 1BC#480100007C000000
(1707835614.045884) COM6 1F5#0000000F00000700
(1707835614.045884) COM6 0C1#3000000030000000
(1707835614.045884) COM6 0C5#3000000030000000
(1707835614.045884) COM6 0D1#C000FFF900F900
(1707835614.045884) COM6 139#0000000000000000
(1707835614.045884) COM6 1C8#80000000FFFE3FFE
(1707835614.045884) COM6 1E5#44FFA0300000024F
(1707835614.045884) COM6 4D1#E900000000000000
(1707835614.045884) COM6 0C9#0000000000500000
(1707835614.061884) COM6 160#803C96B503
(1707835614.061884) COM6 1BC#480100007C000000
(1707835614.061884) COM6 1F1#AE0F173E18000072
(1707835614.061884) COM6 0C9#0000000000500000
(1707835614.061884) COM6 0F1#000000400000
(1707835614.061884) COM6 1BC#480100007C000000
(1707835614.061884) COM6 4C1#0000740000000000
(1707835614.061884) COM6 1C1#0000000000000000
(1707835614.061884) COM6 0C1#0000000000000000
(1707835614.061884) COM6 0C5#0000000000000000
(1707835614.061884) COM6 0D1#00000000000000
(1707835614.061884) COM6 1C8#C0000000FFFD3FFD
(1707835614.061884) COM6 1E1#00000400011CC0
(1707835614.061884) COM6 1E5#44FFA0500000026F
(1707835614.061884) COM6 185#03FB
(1707835614.061884) COM6 1C6#0000000000000000
(1707835614.061884) COM6 1C7#06A0396000003E
(1707835614.061884) COM6 1CE#00000000
(1707835614.061884) COM6 1E9#0000000600080000
(1707835614.061884) COM6 232#00000000000000
(1707835614.061884) COM6 0C9#0000000000500000
(1707835614.061884) COM6 1F3#407C00
(1707835614.061884) COM6 1BC#480100007C000000
(1707835614.061884) COM6 32A#0000000000000000
(1707835614.061884) COM6 0C9#0000000000500000
(1707835614.061884) COM6 0F1#1C0000400000
(1707835614.061884) COM6 1BC#480100007C000000
(1707835614.061884) COM6 3D1#1000000000000000
(1707835614.078429) COM6 1BD#0000000000000000
(1707835614.078429) COM6 0C1#1000000010000000
(1707835614.078429) COM6 0C5#1000000010000000
(1707835614.078429) COM6 0D1#40007FFF00FF00
(1707835614.078429) COM6 1C8#0000000000000000
(1707835614.078429) COM6 1E5#44FFA0700000028F
(1707835614.078429) COM6 3C9#0766000000000000
(1707835614.078429) COM6 0C9#0000000000500000
(1707835614.078429) COM6 3CB#2FFF00000FFD
(1707835614.078429) COM6 1BC#480100007C000000
(1707835614.078429) COM6 3E7#0068
(1707835614.078429) COM6 0C9#0000000000500000
(1707835614.078429) COM6 0F1#280000400000
(1707835614.078429) COM6 1BC#480100007C000000
(1707835614.078429) COM6 3E9#0000800000008000
(1707835614.078429) COM6 3C9#0766423C74B6E353
(1707835614.078429) COM6 0C1#2000000020000000
(1707835614.078429) COM6 0C5#2000000020000000
(1707835614.078429) COM6 0D1#8000BFFE00FE00
(1707835614.078429) COM6 1C8#40000000FFFF3FFF
(1707835614.078429) COM6 1E5#44FFA0100000022F
(1707835614.078429) COM6 185#03FB
(1707835614.078429) COM6 1C6#000000000043FFFF
(1707835614.078429) COM6 1C7#06A0795F00003E
(1707835614.078429) COM6 1CE#080007FF
(1707835614.078429) COM6 1E9#0000000600080000
(1707835614.078429) COM6 232#00000000000000
(1707835614.078429) COM6 210#020001FF
(1707835614.078429) COM6 214#020001FF0403
(1707835614.078429) COM6 0C9#0000000000500000
(1707835614.078429) COM6 2F9#2B000000000007
(1707835614.078429) COM6 1BC#480100007C000000
(1707835614.078429) COM6 348#000000001B
(1707835614.078429) COM6 34A#000000001B
(1707835614.078429) COM6 362#00000000
(1707835614.078429) COM6 365#00000000
(1707835614.078429) COM6 370#000000000000
(1707835614.078429) COM6 17D#2A2443FF2000
(1707835614.078429) COM6 182#000000
(1707835614.078429) COM6 234#00000000
(1707835614.093247) COM6 2F1#0000000000
(1707835614.093247) COM6 451#000000000000
(1707835614.093247) COM6 0C9#0000000000500000
(1707835614.093247) COM6 1BC#480100007C000000
(1707835614.093247) COM6 3F9#8000000000000007
(1707835614.093247) COM6 2C5#0000000000000000
(1707835614.093247) COM6 0C1#3000000030000000
(1707835614.093247) COM6 0C5#3000000030000000
(1707835614.093247) COM6 0D1#C000FFFD00FD00
(1707835614.093247) COM6 0F1#340000400000
(1707835614.093247) COM6 1C8#80000000FFFE3FFE
(1707835614.093247) COM6 1E5#44FFA0300000024F
(1707835614.093247) COM6 0C9#0000000000500000
(1707835614.093247) COM6 1E1#000004000210F0
(1707835614.093247) COM6 1BC#480100007C000000
(1707835614.093247) COM6 1F3#80BC00
(1707835614.093247) COM6 0F1#000000400000
(1707835614.093247) COM6 0C9#0000000000500000
(1707835614.093247) COM6 1BC#480100007C000000
(1707835614.093247) COM6 1F5#0000000F00000700
(1707835614.093247) COM6 4D1#E900000000000000
(1707835614.093247) COM6 0C1#0000000000000000
(1707835614.111140) COM6 0C5#0000000000000000
(1707835614.111140) COM6 0D1#00003FFC00FC00
(1707835614.111140) COM6 1C8#C0000000FFFD3FFD
(1707835614.111140) COM6 1E5#44FFA0500000026F
(1707835614.111140) COM6 185#03FB
(1707835614.111140) COM6 1C6#000000000083FFFE
(1707835614.111140) COM6 1C7#06A0B95E00003E
(1707835614.111140) COM6 1CE#100007FE
(1707835614.111140) COM6 1E9#0000000600060000
(1707835614.111140) COM6 232#00000000000000
(1707835614.111140) COM6 3F1#00FFFA0808FF0A68
(1707835614.111140) COM6 0C9#0000000000500000
(1707835614.111140) COM6 451#000000000000
(1707835614.111140) COM6 1BC#480100007C000000
(1707835614.111140) COM6 0C9#0000000000500000
(1707835614.111140) COM6 0F1#1C0000400000
(1707835614.111140) COM6 1BC#480100007C000000
(1707835614.111140) COM6 4C1#0000740000000000
(1707835614.111140) COM6 1C1#0000000000000000
(1707835614.111140) COM6 0C1#1000000010000000
(1707835614.111140) COM6 0C5#1000000010000000
(1707835614.111140) COM6 0D1#40007FFB00FB00
(1707835614.111140) COM6 1C8#0000000000000000
(1707835614.111140) COM6 1E5#44FFA0700000028F
(1707835614.111140) COM6 451#000000000000
(1707835614.111140) COM6 0C9#0000000000500000
(1707835614.111140) COM6 1BC#480100007C000000
(1707835614.111140) COM6 0C9#0000000000500000
(1707835614.125040) COM6 0F1#280000400000
(1707835614.125040) COM6 1BC#480100007C000000
(1707835614.125040) COM6 3D1#1000000000000000
(1707835614.125040) COM6 1BD#0000000000000000
(1707835614.125040) COM6 0C1#2000000020000000
(1707835614.125040) COM6 0C5#2000000020000000
(1707835614.125040) COM6 0D1#8000BFFA00FA00
(1707835614.125040) COM6 1C8#40000000FFFF3FFF
(1707835614.125040) COM6 1E1#000004000314E0
(1707835614.125040) COM6 1E5#44FFA0100000022F
(1707835614.125040) COM6 185#03FB
(1707835614.125040) COM6 1C6#0000000000C3FFFD
(1707835614.125040) COM6 1C7#06A0F95D00003E
(1707835614.125040) COM6 1CE#180007FD
(1707835614.125040) COM6 1E9#0000000600060000
(1707835614.125040) COM6 232#00000000000000
(1707835614.125040) COM6 0C9#0000000000500000
(1707835614.125040) COM6 1BC#480100007C000000
(1707835614.125040) COM6 1F3#C0FC00
(1707835614.125040) COM6 451#000000000000
(1707835614.125040) COM6 0C9#0000000000500000
(1707835614.125040) COM6 1BC#480100007C000000
(1707835614.125040) COM6 0F1#340000400000
(1707835614.125040) COM6 3E9#0000800000008000
(1707835614.125040) COM6 3C9#0766423C74B6E353
(1707835614.125040) COM6 0C1#3000000030000000
(1707835614.125040) COM6 0C5#3000000030000000
(1707835614.125040) COM6 0D1#C000FFF900F900
(1707835614.125040) COM6 1C8#80000000FFFE3FFE
(1707835614.125040) COM6 1E5#44FFA0300000024F
(1707835614.125040) COM6 210#040001FE
(1707835614.125040) COM6 214#040001FE0802
(1707835614.125040) COM6 2F9#3300000000000A
(1707835614.125040) COM6 348#000000001B
(1707835614.125040) COM6 34A#000000001B
(1707835614.141375) COM6 362#00000000
(1707835614.141375) COM6 365#00000000
(1707835614.141375) COM6 0C9#0000000000500000
(1707835614.141375) COM6 370#000000000000
(1707835614.141375) COM6 1BC#480100007C000000
(1707835614.141375) COM6 0C9#0000000000500000
(1707835614.141375) COM6 1BC#480100007C000000
(1707835614.141375) COM6 0F1#000000400000
(1707835614.141375) COM6 3F9#8000000000000007
(1707835614.141375) COM6 2C5#0000000000000000
(1707835614.141375) COM6 0C1#0000000000000000
(1707835614.141375) COM6 0C5#0000000000000000
(1707835614.141375) COM6 0D1#00000000000000
(1707835614.141375) COM6 12A#0000605D00008080
(1707835614.141375) COM6 1C8#C0000000FFFD3FFD
(1707835614.141375) COM6 1E5#44FFA0500000026F
(1707835614.141375) COM6 185#03FB
(1707835614.141375) COM6 1C6#0000000000000000
(1707835614.141375) COM6 1C7#06A0396000003E
(1707835614.141375) COM6 1CE#00000000
(1707835614.141375) COM6 1E9#0000000600060000
(1707835614.141375) COM6 0C9#0000000000500000
(1707835614.141375) COM6 232#00000000000000
(1707835614.141375) COM6 1BC#480100007C000000
(1707835614.141375) COM6 135#04080D0002180000
(1707835614.141375) COM6 137#0000000000000000
(1707835614.141375) COM6 0C9#0000000000500000
(1707835614.156367) COM6 0F1#1C0000400000
(1707835614.156367) COM6 1BC#480100007C000000
(1707835614.156367) COM6 1F5#0000000F00000700
(1707835614.156367) COM6 4D1#E900000000000000
(1707835614.156367) COM6 0C1#1000000010000000
(1707835614.156367) COM6 0C5#1000000010000000
(1707835614.156367) COM6 0D1#40007FFF00FF00
(1707835614.156367) COM6 139#0000000000000000
(1707835614.156367) COM6 1C8#0000000000000000
(1707835614.156367) COM6 1E5#44FFA0700000028F
(1707835614.156367) COM6 0C9#0000000000500000
(1707835614.156367) COM6 1BC#480100007C000000
(1707835614.156367) COM6 160#803C96B503
(1707835614.156367) COM6 1E1#000004000018D0
(1707835614.156367) COM6 0C9#0000000000500000
(1707835614.156367) COM6 1BC#480100007C000000
(1707835614.156367) COM6 0F1#280000400000
(1707835614.156367) COM6 4C1#0000740000000000
(1707835614.156367) COM6 1C1#0000000000000000
(1707835614.156367) COM6 0C1#2000000020000000
(1707835614.156367) COM6 0C5#2000000020000000
(1707835614.156367) COM6 0D1#8000BFFE00FE00
(1707835614.156367) COM6 1C8#40000000FFFF3FFF
(1707835614.156367) COM6 1E5#44FFA0100000022F
(1707835614.156367) COM6 185#03FC
(1707835614.156367) COM6 1C6#000000000043FFFF
(1707835614.156367) COM6 1C7#06A0795F00003E
(1707835614.156367) COM6 1CE#080007FF
(1707835614.156367) COM6 1E9#0000000600060000
(1707835614.156367) COM6 0C9#0000000000500000
(1707835614.156367) COM6 1F1#AE0F173E18000072
(1707835614.156367) COM6 1BC#480100007C000000
(1707835614.156367) COM6 232#00000000000000
(1707835614.156367) COM6 1F3#003C00
(1707835614.158368) COM6 32A#0000000000000000
(1707835614.160368) COM6 0C9#0000000000500000
(1707835614.173369) COM6 1BC#480100007C000000
(1707835614.173369) COM6 0F1#340000400000
(1707835614.173369) COM6 3D1#1000000000000000
(1707835614.173369) COM6 1BD#0000000000000000
(1707835614.173369) COM6 0C1#3000000030000000
(1707835614.173369) COM6 0C5#3000000030000000
(1707835614.173369) COM6 0D1#C000FFFD00FD00
(1707835614.173369) COM6 1C8#80000000FFFE3FFE
(1707835614.173369) COM6 1E5#44FFA0300000024F
(1707835614.173369) COM6 3C9#0766000000000000
(1707835614.173369) COM6 0C9#0000000000500000
(1707835614.173369) COM6 1BC#480100007C000000
(1707835614.173369) COM6 3CB#2FFF00001005
(1707835614.173369) COM6 3E7#0068
(1707835614.173369) COM6 0C9#0000000000500000
(1707835614.173369) COM6 1BC#480100007C000000
(1707835614.173369) COM6 0F1#000000400000
(1707835614.173369) COM6 3E9#0000800000008000
(1707835614.173369) COM6 3C9#0766423C74B6E353
(1707835614.173369) COM6 0C1#0000000000000000
(1707835614.191006) COM6 0C5#0000000000000000
(1707835614.191006) COM6 0D1#00003FFC00FC00
(1707835614.191006) COM6 1C8#C0000000FFFD3FFD
(1707835614.191006) COM6 1E1#00000400011CC0
(1707835614.191006) COM6 1E5#44FFA0500000026F
(1707835614.191006) COM6 185#03FC
(1707835614.191006) COM6 1C6#000000000083FFFE
(1707835614.191006) COM6 1C7#06A0B95E00003E
(1707835614.191006) COM6 1CE#100007FE
(1707835614.191006) COM6 0C9#0000000000500000
(1707835614.191006) COM6 1E9#0000000600080000
(1707835614.191006) COM6 1BC#480100007C000000
(1707835614.191006) COM6 232#00000000000000
(1707835614.191006) COM6 210#060001FD
(1707835614.191006) COM6 1F3#407C00
(1707835614.191006) COM6 214#060001FD0C01
(1707835614.191006) COM6 2F9#3B00000000000D
(1707835614.191006) COM6 348#000000001B
(1707835614.191006) COM6 34A#000000001B
(1707835614.191006) COM6 362#00000000
(1707835614.191006) COM6 365#00000000
(1707835614.191006) COM6 370#000000000000
(1707835614.191006) COM6 17D#2A2443FF2000
(1707835614.191006) COM6 182#000000
(1707835614.191006) COM6 234#00000000
(1707835614.191006) COM6 2F1#0000000000
(1707835614.191006) COM6 451#000000000000
(1707835614.191006) COM6 0C9#0000000000500000
(1707835614.191006) COM6 1BC#480100007C000000
(1707835614.191006) COM6 3F9#8000000000000007
(1707835614.191006) COM6 0F1#1C0000400000
(1707835614.191006) COM6 2C5#0000000000000000
(1707835614.191006) COM6 0C1#1000000010000000
(1707835614.191006) COM6 0C5#1000000010000000
(1707835614.191006) COM6 0D1#40007FFB00FB00
(1707835614.191006) COM6 1C8#0000000000000000
(1707835614.191006) COM6 1E5#44FFA0700000028F
(1707835614.191006) COM6 0C9#0000000000500000
(1707835614.191006) COM6 1BC#480100007C000000
(1707835614.191006) COM6 0C9#0000000000500000
(1707835614.204020) COM6 1BC#480100007C000000
(1707835614.204020) COM6 0F1#280000400000
(1707835614.204020) COM6 1F5#0000000F00000700
(1707835614.204020) COM6 4D1#E900000000000000
(1707835614.204020) COM6 0C1#2000000020000000
(1707835614.204020) COM6 0C5#2000000020000000
(1707835614.204020) COM6 0D1#8000BFFA00FA00
(1707835614.204020) COM6 1C8#40000000FFFF3FFF
(1707835614.204020) COM6 1E5#44FFA0100000022F
(1707835614.204020) COM6 185#03FC
(1707835614.204020) COM6 1C6#0000000000C3FFFD
(1707835614.204020) COM6 1C7#06A0F95D00003E
(1707835614.204020) COM6 1CE#180007FD
(1707835614.204020) COM6 0C9#0000000000500000
(1707835614.204020) COM6 1E9#0000000600080000
(1707835614.204020) COM6 1BC#480100007C000000
(1707835614.204020) COM6 232#00000000000000
(1707835614.204020) COM6 451#000000000000
(1707835614.204020) COM6 0C9#0000000000500000
(1707835614.204020) COM6 1BC#480100007C000000
(1707835614.204020) COM6 4C1#0000740000000000
(1707835614.204020) COM6 0F1#340000400000
(1707835614.204020) COM6 1C1#0000000000000000
(1707835614.204020) COM6 0C1#3000000030000000
(1707835614.204020) COM6 0C5#3000000030000000
(1707835614.204020) COM6 0D1#C000FFF900F900
(1707835614.204020) COM6 1C8#80000000FFFE3FFE
(1707835614.220196) COM6 1E1#000004000210F0
(1707835614.220196) COM6 1E5#44FFA0300000024F
(1707835614.220196) COM6 0C9#0000000000500000
(1707835614.220196) COM6 1BC#480100007C000000
(1707835614.220196) COM6 1F3#80BC00
(1707835614.220196) COM6 0C9#0000000000500000
(1707835614.220196) COM6 1BC#480100007C000000
(1707835614.220196) COM6 3D1#1000000000000000
(1707835614.220196) COM6 0F1#000000400000
(1707835614.220196) COM6 1BD#0000000000000000
(1707835614.220196) COM6 0C1#0000000000000000
(1707835614.220196) COM6 0C5#0000000000000000
(1707835614.220196) COM6 0D1#00000000000000
(1707835614.220196) COM6 1C8#C0000000FFFD3FFD
(1707835614.220196) COM6 1E5#44FFA0500000026F
(1707835614.220196) COM6 185#03FD
(1707835614.220196) COM6 1C6#0000000000000000
(1707835614.220196) COM6 1C7#06A0396000003E
(1707835614.220196) COM6 0C9#0000000000500000
(1707835614.220196) COM6 1CE#00000000
(1707835614.220196) COM6 1BC#480100007C000000
(1707835614.220196) COM6 1E9#0000000600060000
(1707835614.220196) COM6 232#00000000000000
(1707835614.220196) COM6 451#000000000000
(1707835614.220196) COM6 0C9#0000000000500000
(1707835614.235934) COM6 1BC#480100007C000000
(1707835614.235934) COM6 3E9#0000800000008000
(1707835614.235934) COM6 0F1#1C0000400000
(1707835614.235934) COM6 3C9#0766423C74B6E353
(1707835614.235934) COM6 0C1#1000000010000000
(1707835614.235934) COM6 0C5#1000000010000000
(1707835614.235934) COM6 0D1#40007FFF00FF00
(1707835614.235934) COM6 1C8#0000000000000000
(1707835614.235934) COM6 1E5#44FFA0700000028F
(1707835614.235934) COM6 210#00000000
(1707835614.235934) COM6 214#000000000000
(1707835614.235934) COM6 0C9#0000000000500000
(1707835614.235934) COM6 2F9#43000000000000
(1707835614.235934) COM6 1BC#480100007C000000
(1707835614.235934) COM6 348#000000001B
(1707835614.235934) COM6 34A#000000001B
(1707835614.235934) COM6 362#00000000
(1707835614.235934) COM6 365#00000000
(1707835614.235934) COM6 370#000000000000
(1707835614.235934) COM6 0C9#0000000000500000
(1707835614.235934) COM6 1BC#480100007C000000
(1707835614.235934) COM6 3F9#8000000000000007
(1707835614.235934) COM6 0F1#280000400000
(1707835614.235934) COM6 2C5#0000000000000000
(1707835614.235934) COM6 0C1#2000000020000000
(1707835614.235934) COM6 0C5#2000000020000000
(1707835614.235934) COM6 0D1#8000BFFE00FE00
(1707835614.235934) COM6 12A#0000605D00008080
(1707835614.235934) COM6 1C8#40000000FFFF3FFF
(1707835614.235934) COM6 1E5#44FFA0100000022F
(1707835614.235934) COM6 185#03FC
(1707835614.235934) COM6 0C9#0000000000500000
(1707835614.235934) COM6 1C6#000000000043FFFF
(1707835614.235934) COM6 1BC#480100007C000000
(1707835614.235934) COM6 1C7#06A0795F00003E
(1707835614.251565) COM6 1CE#080007FF
(1707835614.251565) COM6 1E9#0000000600060000
(1707835614.251565) COM6 232#00000000000000
(1707835614.251565) COM6 135#04080D0002180000
(1707835614.251565) COM6 137#0000000000000000
(1707835614.251565) COM6 0C9#0000000000500000
(1707835614.251565) COM6 1BC#480100007C000000
(1707835614.251565) COM6 1F5#0000000F00000700
(1707835614.251565) COM6 0F1#340000400000
(1707835614.251565) COM6 4D1#E900000000000000
(1707835614.251565) COM6 0C1#3000000030000000
(1707835614.251565) COM6 0C5#3000000030000000
(1707835614.251565) COM6 0D1#C000FFFD00FD00
(1707835614.251565) COM6 139#0000000000000000
(1707835614.251565) COM6 1C8#80000000FFFE3FFE
(1707835614.251565) COM6 1E5#44FFA0300000024F
(1707835614.251565) COM6 0C9#0000000000500000
(1707835614.251565) COM6 1BC#480100007C000000
(1707835614.251565) COM6 160#803C96B503
(1707835614.251565) COM6 1E1#000004000314E0
(1707835614.251565) COM6 0C9#0000000000500000
(1707835614.251565) COM6 1BC#480100007C000000
(1707835614.251565) COM6 4C1#0000740000000000
(1707835614.251565) COM6 1C1#0000000000000000
(1707835614.251565) COM6 0F1#000000400000
(1707835614.253611) COM6 0C1#0000000000000000
(1707835614.269153) COM6 0C5#0000000000000000
(1707835614.269153) COM6 0D1#00003FFC00FC00
(1707835614.269153) COM6 1C8#C0000000FFFD3FFD
(1707835614.269153) COM6 1E5#44FFA0500000026F
(1707835614.269153) COM6 185#03FC
(1707835614.269153) COM6 0C9#0000000000500000
(1707835614.269153) COM6 1C6#000000000083FFFE
(1707835614.269153) COM6 1BC#480100007C000000
(1707835614.269153) COM6 1C7#06A0B95E00003E
(1707835614.269153) COM6 1CE#100007FE
(1707835614.269153) COM6 1E9#0000000600080000
(1707835614.269153) COM6 1F1#AE0F173E18000072
(1707835614.269153) COM6 232#00000000000000
(1707835614.269153) COM6 1F3#C0FC00
(1707835614.269153) COM6 32A#0000000000000000
(1707835614.269153) COM6 0C9#0000000000500000
(1707835614.269153) COM6 1BC#480100007C000000
(1707835614.269153) COM6 3D1#1000000000000000
(1707835614.269153) COM6 1BD#0000000000000000
(1707835614.269153) COM6 0F1#1C0000400000
(1707835614.269153) COM6 0C1#1000000010000000
(1707835614.269153) COM6 0C5#1000000010000000
(1707835614.269153) COM6 0D1#40007FFB00FB00
(1707835614.269153) COM6 1C8#0000000000000000
(1707835614.269153) COM6 1E1#000004000018D0
(1707835614.269153) COM6 1E5#44FFA0700000028F
(1707835614.269153) COM6 0C9#0000000000500000
(1707835614.269153) COM6 1BC#480100007C000000
(1707835614.269153) COM6 1F3#003C00
(1707835614.269153) COM6 3C9#0766000000000000
(1707835614.283533) COM6 0C9#0000000000500000
(1707835614.283533) COM6 1BC#480100007C000000
(1707835614.283533) COM6 3E9#0000800000008000
(1707835614.283533) COM6 3C9#0766423C74B6E353
(1707835614.283533) COM6 0F1#280000400000
(1707835614.283533) COM6 0C1#2000000020000000
(1707835614.283533) COM6 0C5#2000000020000000
(1707835614.283533) COM6 0D1#8000BFFA00FA00
(1707835614.283533) COM6 1C8#40000000FFFF3FFF
(1707835614.283533) COM6 1E5#44FFA0100000022F
(1707835614.283533) COM6 0C9#0000000000500000
(1707835614.283533) COM6 185#03FC
(1707835614.283533) COM6 1C6#0000000000C3FFFD
(1707835614.283533) COM6 1BC#480100007C000000
(1707835614.283533) COM6 1C7#06A0F95D00003E
(1707835614.283533) COM6 1CE#180007FD
(1707835614.283533) COM6 1E9#0000000600080000
(1707835614.283533) COM6 232#00000000000000
(1707835614.283533) COM6 210#020001FF
(1707835614.283533) COM6 214#020001FF0403
(1707835614.283533) COM6 2F9#4B000000000007
(1707835614.283533) COM6 348#000000001B
(1707835614.283533) COM6 34A#000000001B
(1707835614.283533) COM6 362#00000000
(1707835614.283533) COM6 365#00000000
(1707835614.283533) COM6 370#000000000000
(1707835614.283533) COM6 17D#2A2443FF2000
(1707835614.283533) COM6 182#000000
(1707835614.283533) COM6 234#00000000
(1707835614.283533) COM6 2F1#0000000000
(1707835614.283533) COM6 3CB#2FFF00001005
(1707835614.283533) COM6 3E7#0068
(1707835614.283533) COM6 0C9#0000000000500000
(1707835614.283533) COM6 1BC#480100007C000000
(1707835614.283533) COM6 3F9#8000000000000007
(1707835614.283533) COM6 2C5#0000000000000000
(1707835614.283533) COM6 451#000000000000
(1707835614.283533) COM6 0C1#3000000030000000
(1707835614.283533) COM6 0C5#3000000030000000
(1707835614.298974) COM6 0D1#C000FFF900F900
(1707835614.298974) COM6 0F1#340000400000
(1707835614.298974) COM6 1C8#80000000FFFE3FFE
(1707835614.298974) COM6 0C9#0000000000500000
(1707835614.298974) COM6 1E5#44FFA0300000024F
(1707835614.298974) COM6 1BC#480100007C000000
(1707835614.298974) COM6 0C9#0000000000500000
(1707835614.298974) COM6 1BC#480100007C000000
(1707835614.298974) COM6 1F5#0000000F00000700
(1707835614.298974) COM6 0F1#000000400000
(1707835614.298974) COM6 4D1#E900000000000000
(1707835614.298974) COM6 0C1#0000000000000000
(1707835614.298974) COM6 0C5#0000000000000000
(1707835614.298974) COM6 0D1#00000000000000
(1707835614.298974) COM6 1C8#C0000000FFFD3FFD
(1707835614.298974) COM6 1E1#00000400011CC0
(1707835614.298974) COM6 0C9#0000000000500000
(1707835614.298974) COM6 1E5#44FFA0500000026F
(1707835614.298974) COM6 185#03FB
(1707835614.298974) COM6 1BC#480100007C000000
(1707835614.298974) COM6 1C6#0000000000000000
(1707835614.298974) COM6 1C7#06A0396000003E
(1707835614.298974) COM6 1CE#00000000
(1707835614.298974) COM6 1E9#0000000600080000
(1707835614.298974) COM6 232#00000000000000
(1707835614.298974) COM6 1F3#407C00
(1707835614.298974) COM6 451#000000000000
(1707835614.312954) COM6 0C9#0000000000500000
(1707835614.312954) COM6 1BC#480100007C000000
(1707835614.312954) COM6 4C1#0000740000000000
(1707835614.312954) COM6 1C1#0000000000000000
(1707835614.312954) COM6 0F1#1C0000400000
(1707835614.312954) COM6 0C1#1000000010000000
(1707835614.312954) COM6 0C5#1000000010000000
(1707835614.312954) COM6 0D1#40007FFF00FF00
(1707835614.312954) COM6 1C8#0000000000000000
(1707835614.312954) COM6 0C9#0000000000500000
(1707835614.312954) COM6 1E5#44FFA0700000028F
(1707835614.312954) COM6 1BC#480100007C000000
(1707835614.312954) COM6 0C9#0000000000500000
(1707835614.312954) COM6 1BC#480100007C000000
(1707835614.312954) COM6 3D1#1000000000000000
(1707835614.312954) COM6 1BD#0000000000000000
(1707835614.312954) COM6 0F1#280000400000
(1707835614.312954) COM6 0C1#2000000020000000
(1707835614.328953) COM6 0C5#2000000020000000
(1707835614.328953) COM6 0D1#8000BFFE00FE00
(1707835614.328953) COM6 1C8#40000000FFFF3FFF
(1707835614.328953) COM6 0C9#0000000000500000
(1707835614.328953) COM6 1E5#44FFA0100000022F
(1707835614.328953) COM6 185#03FC
(1707835614.328953) COM6 1BC#480100007C000000
(1707835614.328953) COM6 1C6#000000000043FFFF
(1707835614.328953) COM6 1C7#06A0795F00003E
(1707835614.328953) COM6 1CE#080007FF
(1707835614.328953) COM6 1E9#0000000600060000
(1707835614.328953) COM6 232#00000000000000
(1707835614.328953) COM6 451#000000000000
(1707835614.328953) COM6 0C9#0000000000500000
(1707835614.328953) COM6 1BC#480100007C000000
(1707835614.328953) COM6 3E9#0000800000008000
(1707835614.328953) COM6 3C9#0766423C74B6E353
(1707835614.328953) COM6 0F1#340000400000
(1707835614.328953) COM6 0C1#3000000030000000
(1707835614.328953) COM6 0C5#3000000030000000
(1707835614.328953) COM6 0D1#C000FFFD00FD00
(1707835614.328953) COM6 1C8#80000000FFFE3FFE
(1707835614.328953) COM6 0C9#0000000000500000
(1707835614.328953) COM6 1E1#000004000210F0
(1707835614.328953) COM6 1BC#480100007C000000
(1707835614.328953) COM6 1E5#44FFA0300000024F
(1707835614.328953) COM6 210#040001FE
(1707835614.328953) COM6 214#040001FE0802
(1707835614.328953) COM6 2F9#5300000000000A
(1707835614.328953) COM6 348#000000001B
(1707835614.328953) COM6 34A#000000001B
(1707835614.328953) COM6 362#00000000
(1707835614.328953) COM6 365#00000000
(1707835614.328953) COM6 370#000000000000
(1707835614.328953) COM6 1F3#80BC00
(1707835614.328953) COM6 0C9#0000000000500000
(1707835614.344565) COM6 1BC#480100007C000000
(1707835614.344565) COM6 3F9#8000000000000007
(1707835614.344565) COM6 2C5#0000000000000000
(1707835614.344565) COM6 0F1#000000400000
(1707835614.344565) COM6 0C1#0000000000000000
(1707835614.344565) COM6 0C5#0000000000000000
(1707835614.344565) COM6 0D1#00003FFC00FC00
(1707835614.344565) COM6 0C9#0000000000500000
(1707835614.344565) COM6 12A#0000605D00008080
(1707835614.344565) COM6 1BC#480100007C000000
(1707835614.344565) COM6 1C8#C0000000FFFD3FFD
(1707835614.344565) COM6 1E5#44FFA0500000026F
(1707835614.344565) COM6 185#03FB
(1707835614.344565) COM6 1C6#000000000083FFFE
(1707835614.344565) COM6 1C7#06A0B95E00003E
(1707835614.344565) COM6 1CE#100007FE
(1707835614.344565) COM6 1E9#0000000600080000
(1707835614.344565) COM6 232#00000000000000
(1707835614.344565) COM6 135#04080D0002180000
(1707835614.344565) COM6 137#0000000000000000
(1707835614.344565) COM6 0C9#0000000000500000
(1707835614.344565) COM6 1BC#480100007C000000
(1707835614.344565) COM6 1F5#0000000F00000700
(1707835614.344565) COM6 4D1#E900000000000000
(1707835614.344565) COM6 0F1#1C0000400000
(1707835614.344565) COM6 0C1#1000000010000000
(1707835614.344565) COM6 0C5#1000000010000000
(1707835614.344565) COM6 0D1#40007FFB00FB00
(1707835614.344565) COM6 0C9#0000000000500000
(1707835614.344565) COM6 139#0000000000000000
(1707835614.344565) COM6 1BC#480100007C000000
(1707835614.360885) COM6 1C8#0000000000000000
(1707835614.360885) COM6 1E5#44FFA0700000028F
(1707835614.360885) COM6 160#803C96B503
(1707835614.360885) COM6 1F1#AE0F173E18000072
(1707835614.360885) COM6 0C9#0000000000500000
(1707835614.360885) COM6 1BC#480100007C000000
(1707835614.360885) COM6 4C1#0000740000000000
(1707835614.360885) COM6 1C1#0000000000000000
(1707835614.360885) COM6 0F1#280000400000
(1707835614.360885) COM6 0C1#2000000020000000
(1707835614.360885) COM6 0C5#2000000020000000
(1707835614.360885) COM6 0D1#8000BFFA00FA00
(1707835614.360885) COM6 0C9#0000000000500000
(1707835614.360885) COM6 1C8#40000000FFFF3FFF
(1707835614.360885) COM6 1BC#480100007C000000
(1707835614.360885) COM6 1E1#000004000314E0
(1707835614.360885) COM6 1E5#44FFA0100000022F
(1707835614.360885) COM6 185#03FB
(1707835614.360885) COM6 1C6#0000000000C3FFFD
(1707835614.360885) COM6 1C7#06A0F95D00003E
(1707835614.360885) COM6 1CE#180007FD
(1707835614.360885) COM6 1E9#0000000600060000
(1707835614.360885) COM6 232#00000000000000
(1707835614.360885) COM6 1F3#C0FC00
(1707835614.360885) COM6 0C9#0000000000500000
(1707835614.360885) COM6 32A#0000000000000000
(1707835614.360885) COM6 1BC#480100007C000000
(1707835614.360885) COM6 3D1#1000000000000000
(1707835614.360885) COM6 1BD#0000000000000000
(1707835614.376956) COM6 0F1#340000400000
(1707835614.376956) COM6 0C1#3000000030000000
(1707835614.376956) COM6 0C5#3000000030000000
(1707835614.376956) COM6 0C9#0000000000500000
(1707835614.376956) COM6 0D1#C000FFF900F900
(1707835614.376956) COM6 1C8#80000000FFFE3FFE
(1707835614.376956) COM6 1BC#480100007C000000
(1707835614.376956) COM6 1E5#44FFA0300000024F
(1707835614.376956) COM6 3C9#0766000000000000
(1707835614.376956) COM6 3CB#2FFE00000FFD
(1707835614.376956) COM6 0C9#0000000000500000
(1707835614.376956) COM6 3E7#0068
(1707835614.376956) COM6 1BC#480100007C000000
(1707835614.376956) COM6 3E9#0000800000008000
(1707835614.376956) COM6 3C9#0766423C74B6E353
(1707835614.376956) COM6 0F1#000000400000
(1707835614.376956) COM6 0C1#0000000000000000
(1707835614.376956) COM6 0C5#0000000000000000
(1707835614.376956) COM6 0C9#0000000000500000
(1707835614.376956) COM6 0D1#00000000000000
(1707835614.376956) COM6 1BC#480100007C000000
(1707835614.376956) COM6 1C8#C0000000FFFD3FFD
(1707835614.376956) COM6 1E5#44FFA0500000026F
(1707835614.376956) COM6 185#03FB
(1707835614.376956) COM6 1C6#0000000000000000
(1707835614.376956) COM6 1C7#06A0396000003E
(1707835614.376956) COM6 1CE#00000000
(1707835614.376956) COM6 1E9#0000000600060000
(1707835614.376956) COM6 232#00000000000000
(1707835614.376956) COM6 210#060001FD
(1707835614.376956) COM6 214#060001FD0C01
(1707835614.376956) COM6 2F9#5B00000000000D
(1707835614.376956) COM6 348#000000001B
(1707835614.376956) COM6 34A#000000001B
(1707835614.393923) COM6 362#00000000
(1707835614.393923) COM6 365#00000000
(1707835614.393923) COM6 370#000000000000
(1707835614.393923) COM6 17D#2A2443FF2000
(1707835614.393923) COM6 182#000000
(1707835614.393923) COM6 234#00000000
(1707835614.393923) COM6 2F1#0000000000
(1707835614.393923) COM6 3F1#00FFFA0808FF0A68
(1707835614.393923) COM6 0C9#0000000000500000
(1707835614.393923) COM6 451#000000000000
(1707835614.393923) COM6 1BC#480100007C000000
(1707835614.393923) COM6 3F9#8000000000000007
(1707835614.393923) COM6 2C5#0000000000000000
(1707835614.393923) COM6 0F1#1C0000400000
(1707835614.393923) COM6 0C1#1000000010000000
(1707835614.393923) COM6 0C5#1000000010000000
(1707835614.393923) COM6 0C9#0000000000500000
(1707835614.393923) COM6 0D1#40007FFF00FF00
(1707835614.393923) COM6 1BC#480100007C000000
(1707835614.393923) COM6 1C8#0000000000000000
(1707835614.393923) COM6 1E1#000004000018D0
(1707835614.393923) COM6 1E5#44FFA0700000028F
(1707835614.393923) COM6 1F3#003C00
(1707835614.393923) COM6 4C5#000000
(1707835614.393923) COM6 0C9#0000000000500000
(1707835614.393923) COM6 1BC#480100007C000000
(1707835614.393923) COM6 1F5#0000000F00000700
(1707835614.393923) COM6 4D1#E900000000000000
(1707835614.393923) COM6 0F1#280000400000
(1707835614.393923) COM6 0C1#2000000020000000
(1707835614.408255) COM6 0C5#2000000020000000
(1707835614.408255) COM6 0C9#0000000000500000
(1707835614.408255) COM6 0D1#8000BFFE00FE00
(1707835614.408255) COM6 1BC#480100007C000000
(1707835614.408255) COM6 1C8#40000000FFFF3FFF
(1707835614.408255) COM6 1E5#44FFA0100000022F
(1707835614.408255) COM6 185#03FC
(1707835614.408255) COM6 1C6#000000000043FFFF
(1707835614.408255) COM6 1C7#06A0795F00003E
(1707835614.408255) COM6 1CE#080007FF
(1707835614.408255) COM6 1E9#0000000600060000
(1707835614.408255) COM6 232#00000000000000
(1707835614.408255) COM6 451#000000000000
(1707835614.408255) COM6 0C9#0000000000500000
(1707835614.408255) COM6 4D7#013986DAA2
(1707835614.408255) COM6 1BC#480100007C000000
(1707835614.408255) COM6 4C1#0000740000000000
(1707835614.408255) COM6 1C1#0000000000000000
(1707835614.408255) COM6 0F1#340000400000
(1707835614.408255) COM6 0C1#3000000030000000
(1707835614.408255) COM6 0C5#3000000030000000
(1707835614.408255) COM6 0C9#0000000000500000
(1707835614.408255) COM6 0D1#C000FFFD00FD00
(1707835614.408255) COM6 1BC#480100007C000000
(1707835614.408255) COM6 1C8#80000000FFFE3FFE
(1707835614.408255) COM6 1E5#44FFA0300000024F
(1707835614.408255) COM6 0C9#0000000000500000
(1707835614.423244) COM6 1BC#480100007C000000
(1707835614.423244) COM6 3D1#1000000000000000
(1707835614.423244) COM6 1BD#0000000000000000
(1707835614.423244) COM6 0F1#000000400000
(1707835614.423244) COM6 0C1#0000000000000000
(1707835614.423244) COM6 0C5#0000000000000000
(1707835614.423244) COM6 0C9#0000000000500000
(1707835614.423244) COM6 0D1#00003FFC00FC00
(1707835614.423244) COM6 1BC#480100007C000000
(1707835614.423244) COM6 1C8#C0000000FFFD3FFD
(1707835614.423244) COM6 1E1#00000400011CC0
(1707835614.423244) COM6 1E5#44FFA0500000026F
(1707835614.423244) COM6 185#03FC
(1707835614.423244) COM6 1C6#000000000083FFFE
(1707835614.423244) COM6 1C7#06A0B95E00003E
(1707835614.423244) COM6 1CE#100007FE
(1707835614.423244) COM6 1E9#0000000600060000
(1707835614.423244) COM6 232#00000000000000
(1707835614.423244) COM6 1F3#407C00
(1707835614.423244) COM6 0C9#0000000000500000
(1707835614.423244) COM6 451#000000000000
(1707835614.423244) COM6 1BC#480100007C000000
(1707835614.423244) COM6 3E9#0000800000008000
(1707835614.423244) COM6 3C9#0766423C74B6E353
(1707835614.423244) COM6 0F1#1C0000400000
(1707835614.423244) COM6 0C9#0000000000500000
(1707835614.439343) COM6 0C1#1000000010000000
(1707835614.439343) COM6 0C5#1000000010000000
(1707835614.439343) COM6 0D1#40007FFB00FB00
(1707835614.439343) COM6 1BC#480100007C000000
(1707835614.439343) COM6 1C8#0000000000000000
(1707835614.439343) COM6 1E5#44FFA0700000028F
(1707835614.439343) COM6 210#00000000
(1707835614.439343) COM6 214#000000000000
(1707835614.439343) COM6 2F9#63000000000000
(1707835614.439343) COM6 348#000000001B
(1707835614.439343) COM6 34A#000000001B
(1707835614.439343) COM6 362#00000000
(1707835614.439343) COM6 365#00000000
(1707835614.439343) COM6 370#000000000000
(1707835614.439343) COM6 0C9#0000000000500000
(1707835614.439343) COM6 1BC#480100007C000000
(1707835614.439343) COM6 3F9#8000000000000007
(1707835614.439343) COM6 2C5#0000000000000000
(1707835614.439343) COM6 0F1#280000400000
(1707835614.439343) COM6 0C9#0000000000500000
(1707835614.439343) COM6 0C1#2000000020000000
(1707835614.439343) COM6 0C5#2000000020000000
(1707835614.439343) COM6 0D1#8000BFFA00FA00
(1707835614.439343) COM6 12A#0000605D00008080
(1707835614.439343) COM6 1BC#480100007C000000
(1707835614.439343) COM6 1C8#40000000FFFF3FFF
(1707835614.439343) COM6 1E5#44FFA0100000022F
(1707835614.439343) COM6 185#03FB
(1707835614.439343) COM6 1C6#0000000000C3FFFD
(1707835614.439343) COM6 1C7#06A0F95D00003E
(1707835614.439343) COM6 1CE#180007FD
(1707835614.439343) COM6 1E9#0000000600080000
(1707835614.439343) COM6 232#00000000000000
(1707835614.439343) COM6 135#04080D0002180000
(1707835614.439343) COM6 0C9#0000000000500000
(1707835614.439343) COM6 137#0000000000000000
(1707835614.439343) COM6 1BC#480100007C000000
(1707835614.439343) COM6 1F5#0000000F00000700
(1707835614.454696) COM6 4D1#E900000000000000
(1707835614.454696) COM6 0F1#340000400000
(1707835614.454696) COM6 0C9#0000000000500000
(1707835614.454696) COM6 0C1#3000000030000000
(1707835614.454696) COM6 0C5#3000000030000000
(1707835614.454696) COM6 0D1#C000FFF900F900
(1707835614.454696) COM6 139#0000000000000000
(1707835614.454696) COM6 1BC#480100007C000000
(1707835614.454696) COM6 1C8#80000000FFFE3FFE
(1707835614.454696) COM6 1E5#44FFA0300000024F
(1707835614.454696) COM6 160#803C96B503
(1707835614.454696) COM6 0C9#0000000000500000
(1707835614.454696) COM6 1BC#480100007C000000
(1707835614.454696) COM6 1E1#000004000210F0
(1707835614.454696) COM6 4C1#0000740000000000
(1707835614.454696) COM6 1C1#0000000000000000
(1707835614.454696) COM6 0F1#000000400000
(1707835614.454696) COM6 0C9#0000000000500000
(1707835614.454696) COM6 0C1#0000000000000000
(1707835614.454696) COM6 0C5#0000000000000000
(1707835614.454696) COM6 0D1#00000000000000
(1707835614.454696) COM6 1BC#480100007C000000
(1707835614.454696) COM6 1C8#C0000000FFFD3FFD
(1707835614.454696) COM6 1E5#44FFA0500000026F
(1707835614.454696) COM6 185#03FC
(1707835614.454696) COM6 1C6#0000000000000000
(1707835614.471719) COM6 1C7#06A0396000003E
(1707835614.471719) COM6 1CE#00000000
(1707835614.471719) COM6 1E9#0000000600080000
(1707835614.471719) COM6 1F1#AE0F173E18000072
(1707835614.471719) COM6 232#00000000000000
(1707835614.471719) COM6 1F3#80BC00
(1707835614.471719) COM6 0C9#0000000000500000
(1707835614.471719) COM6 1BC#480100007C000000
(1707835614.471719) COM6 32A#0000000000000000
(1707835614.471719) COM6 3D1#1000000000000000
(1707835614.471719) COM6 1BD#0000000000000000
(1707835614.471719) COM6 0F1#1C0000400000
(1707835614.471719) COM6 0C9#0000000000500000
(1707835614.471719) COM6 0C1#1000000010000000
(1707835614.471719) COM6 0C5#1000000010000000
(1707835614.471719) COM6 0D1#40007FFF00FF00
(1707835614.471719) COM6 1BC#480100007C000000
(1707835614.471719) COM6 1C8#0000000000000000
(1707835614.471719) COM6 1E5#44FFA0700000028F
(1707835614.471719) COM6 3C9#0766000000000000
(1707835614.471719) COM6 3CB#2FFE00000FFD
(1707835614.471719) COM6 0C9#0000000000500000
(1707835614.471719) COM6 1BC#480100007C000000
(1707835614.471719) COM6 3E7#0068
(1707835614.471719) COM6 3E9#0000800000008000
(1707835614.471719) COM6 3C9#0766423C74B6E353
(1707835614.471719) COM6 0F1#280000400000
(1707835614.473351) COM6 0C9#0000000000500000
(1707835614.488843) COM6 0C1#2000000020000000
(1707835614.488843) COM6 0C5#2000000020000000
(1707835614.488843) COM6 0D1#8000BFFE00FE00
(1707835614.488843) COM6 1BC#480100007C000000
(1707835614.488843) COM6 1C8#40000000FFFF3FFF
(1707835614.488843) COM6 1E1#000004000314E0
(1707835614.488843) COM6 1E5#44FFA0100000022F
(1707835614.488843) COM6 185#03FC
(1707835614.488843) COM6 1C6#000000000043FFFF
(1707835614.488843) COM6 1C7#06A0795F00003E
(1707835614.488843) COM6 1CE#080007FF
(1707835614.488843) COM6 1E9#0000000600080000
(1707835614.488843) COM6 232#00000000000000
(1707835614.488843) COM6 210#020001FF
(1707835614.488843) COM6 214#020001FF0403
(1707835614.488843) COM6 1F3#C0FC00
(1707835614.488843) COM6 2F9#6B000000000007
(1707835614.488843) COM6 348#000000001B
(1707835614.488843) COM6 34A#000000001B
(1707835614.488843) COM6 362#00000000
(1707835614.488843) COM6 365#00000000
(1707835614.488843) COM6 370#000000000000
(1707835614.488843) COM6 0C9#0000000000500000
(1707835614.488843) COM6 17D#2A2443FF2000
(1707835614.488843) COM6 182#000000
(1707835614.488843) COM6 1BC#480100007C000000
(1707835614.488843) COM6 234#00000000
(1707835614.488843) COM6 2F1#0000000000
(1707835614.488843) COM6 3F9#8000000000000007
(1707835614.488843) COM6 451#000000000000
(1707835614.488843) COM6 2C5#0000000000000000
(1707835614.488843) COM6 0F1#340000400000
(1707835614.488843) COM6 0C9#0000000000500000
(1707835614.488843) COM6 1BC#480100007C000000
(1707835614.488843) COM6 0C1#3000000030000000
(1707835614.488843) COM6 0C5#3000000030000000
(1707835614.488843) COM6 0D1#C000FFFD00FD00
(1707835614.488843) COM6 1C8#80000000FFFE3FFE
(1707835614.488843) COM6 1E5#44FFA0300000024F
(1707835614.488843) COM6 0C9#0000000000500000
(1707835614.503029) COM6 1BC#480100007C000000
(1707835614.503029) COM6 1F5#0000000F00000700
(1707835614.503029) COM6 4D1#E900000000000000
(1707835614.503029) COM6 0F1#000000400000
(1707835614.503029) COM6 0C9#0000000000500000
(1707835614.503029) COM6 1BC#480100007C000000
(1707835614.503029) COM6 0C1#0000000000000000
(1707835614.503029) COM6 0C5#0000000000000000
(1707835614.503029) COM6 0D1#00003FFC00FC00
(1707835614.503029) COM6 1C8#C0000000FFFD3FFD
(1707835614.503029) COM6 1E5#44FFA0500000026F
(1707835614.503029) COM6 185#03FC
(1707835614.503029) COM6 1C6#000000000083FFFE
(1707835614.503029) COM6 1C7#06A0B95E00003E
(1707835614.503029) COM6 1CE#100007FE
(1707835614.503029) COM6 1E9#0000000600060000
(1707835614.503029) COM6 232#00000000000000
(1707835614.503029) COM6 451#000000000000
(1707835614.503029) COM6 0C9#0000000000500000
(1707835614.503029) COM6 1BC#480100007C000000
(1707835614.503029) COM6 4C1#0000740000000000
(1707835614.503029) COM6 1C1#0000000000000000
(1707835614.503029) COM6 0F1#1C0000400000
(1707835614.503029) COM6 0C9#0000000000500000
(1707835614.517667) COM6 1BC#480100007C000000
(1707835614.517667) COM6 0C1#1000000010000000
(1707835614.517667) COM6 0C5#1000000010000000
(1707835614.517667) COM6 0D1#40007FFB00FB00
(1707835614.517667) COM6 1C8#0000000000000000
(1707835614.517667) COM6 1E1#000004000018D0
(1707835614.517667) COM6 1E5#44FFA0700000028F
(1707835614.517667) COM6 1F3#003C00
(1707835614.517667) COM6 0C9#0000000000500000
(1707835614.517667) COM6 1BC#480100007C000000
(1707835614.517667) COM6 3D1#1000000000000000
(1707835614.517667) COM6 1BD#0000000000000000
(1707835614.517667) COM6 0F1#280000400000
(1707835614.517667) COM6 0C9#0000000000500000
(1707835614.517667) COM6 1BC#480100007C000000
(1707835614.517667) COM6 0C1#2000000020000000
(1707835614.517667) COM6 0C5#2000000020000000
(1707835614.517667) COM6 0D1#8000BFFA00FA00
(1707835614.517667) COM6 1C8#40000000FFFF3FFF
(1707835614.517667) COM6 1E5#44FFA0100000022F
(1707835614.517667) COM6 185#03FC
(1707835614.517667) COM6 1C6#0000000000C3FFFD
(1707835614.517667) COM6 1C7#06A0F95D00003E
(1707835614.517667) COM6 1CE#180007FD
(1707835614.517667) COM6 1E9#0000000600060000
(1707835614.517667) COM6 232#00000000000000
(1707835614.517667) COM6 451#000000000000
(1707835614.517667) COM6 0C9#0000000000500000
(1707835614.531924) COM6 1BC#480100007C000000
(1707835614.531924) COM6 3E9#0000800000008000
(1707835614.531924) COM6 3C9#0766423C74B6E353
(1707835614.531924) COM6 0F1#340000400000
(1707835614.531924) COM6 0C9#0000000000500000
(1707835614.531924) COM6 1BC#480100007C000000
(1707835614.531924) COM6 0C1#3000000030000000
(1707835614.531924) COM6 0C5#3000000030000000
(1707835614.531924) COM6 0D1#C000FFF900F900
(1707835614.531924) COM6 1C8#80000000FFFE3FFE
(1707835614.531924) COM6 1E5#44FFA0300000024F
(1707835614.531924) COM6 210#040001FE
(1707835614.531924) COM6 214#040001FE0802
(1707835614.531924) COM6 2F9#7300000000000A
(1707835614.531924) COM6 348#000000001B
(1707835614.531924) COM6 34A#000000001B
(1707835614.531924) COM6 362#00000000
(1707835614.531924) COM6 365#00000000
(1707835614.531924) COM6 370#000000000000
(1707835614.531924) COM6 0C9#0000000000500000
(1707835614.531924) COM6 1BC#480100007C000000
(1707835614.531924) COM6 3F9#8000000000000007
(1707835614.531924) COM6 2C5#0000000000000000
(1707835614.531924) COM6 0F1#000000400000
(1707835614.531924) COM6 0C9#0000000000500000
(1707835614.547716) COM6 1BC#480100007C000000
(1707835614.547716) COM6 0C1#0000000000000000
(1707835614.547716) COM6 0C5#0000000000000000
(1707835614.547716) COM6 0D1#00000000000000
(1707835614.547716) COM6 12A#0000605D00008080
(1707835614.547716) COM6 1C8#C0000000FFFD3FFD
(1707835614.547716) COM6 1E5#44FFA0500000026F
(1707835614.547716) COM6 185#03FC
(1707835614.547716) COM6 1C6#0000000000000000
(1707835614.548709) COM6 1C7#06A0396000003E
(1707835614.548709) COM6 1CE#00000000
(1707835614.548709) COM6 1E9#0000000600060000
(1707835614.548709) COM6 232#00000000000000
(1707835614.548709) COM6 135#04080D0002180000
(1707835614.548709) COM6 0C9#0000000000500000
(1707835614.548709) COM6 1BC#480100007C000000
(1707835614.548709) COM6 137#0000000000000000
(1707835614.548709) COM6 1F5#0000000F00000700
(1707835614.548709) COM6 4D1#E900000000000000
(1707835614.548709) COM6 0F1#1C0000400000
(1707835614.548709) COM6 0C9#0000000000500000
(1707835614.548709) COM6 1BC#480100007C000000
(1707835614.548709) COM6 0C1#1000000010000000
(1707835614.548709) COM6 0C5#1000000010000000
(1707835614.548709) COM6 0D1#40007FFF00FF00
(1707835614.548709) COM6 139#0000000000000000
(1707835614.548709) COM6 1C8#0000000000000000
(1707835614.548709) COM6 1E5#44FFA0700000028F
(1707835614.548709) COM6 160#803C96B503
(1707835614.548709) COM6 0C9#0000000000500000
(1707835614.548709) COM6 1BC#480100007C000000
(1707835614.548709) COM6 4C1#0000740000000000
(1707835614.563111) COM6 1E1#00000400011CC0
(1707835614.563111) COM6 1C1#0000000000000000
(1707835614.563111) COM6 0F1#280000400000
(1707835614.563111) COM6 0C9#0000000000500000
(1707835614.563111) COM6 1BC#480100007C000000
(1707835614.563111) COM6 0C1#2000000020000000
(1707835614.563111) COM6 0C5#2000000020000000
(1707835614.563111) COM6 0D1#8000BFFE00FE00
(1707835614.563111) COM6 1C8#40000000FFFF3FFF
(1707835614.563111) COM6 1E5#44FFA0100000022F
(1707835614.563111) COM6 185#03FC
(1707835614.563111) COM6 1C6#000000000043FFFF
(1707835614.563111) COM6 1C7#06A0795F00003E
(1707835614.563111) COM6 1CE#080007FF
(1707835614.563111) COM6 1E9#0000000600060000
(1707835614.563111) COM6 1F1#AE0F173E18000072
(1707835614.563111) COM6 232#00000000000000
(1707835614.563111) COM6 1F3#407C00
(1707835614.563111) COM6 0C9#0000000000500000
(1707835614.563111) COM6 1BC#480100007C000000
(1707835614.563111) COM6 3D1#1000000000000000
(1707835614.563111) COM6 1BD#0000000000000000
(1707835614.563111) COM6 32A#0000000000000000
(1707835614.563111) COM6 0F1#340000400000
(1707835614.563111) COM6 0C9#0000000000500000
(1707835614.563111) COM6 1BC#480100007C000000
(1707835614.563111) COM6 0C1#3000000030000000
(1707835614.563111) COM6 0C5#3000000030000000
(1707835614.581095) COM6 0D1#C000FFFD00FD00
(1707835614.581095) COM6 1C8#80000000FFFE3FFE
(1707835614.581095) COM6 1E1#000004000210F0
(1707835614.581095) COM6 1E5#44FFA0300000024F
(1707835614.581095) COM6 1F3#80BC00
(1707835614.581095) COM6 0C9#0000000000500000
(1707835614.581095) COM6 1BC#480100007C000000
(1707835614.581095) COM6 3E9#0000800000008000
(1707835614.581095) COM6 3C9#0766423C74B6E353
(1707835614.581095) COM6 3C9#0766000000000000
(1707835614.581095) COM6 0F1#000000400000
(1707835614.581095) COM6 0C9#0000000000500000
(1707835614.581095) COM6 1BC#480100007C000000
(1707835614.581095) COM6 0C1#0000000000000000
(1707835614.581095) COM6 0C5#0000000000000000
(1707835614.581095) COM6 0D1#00003FFC00FC00
(1707835614.581095) COM6 1C8#C0000000FFFD3FFD
(1707835614.581095) COM6 1E5#44FFA0500000026F
(1707835614.581095) COM6 185#03FD
(1707835614.581095) COM6 1C6#000000000083FFFE
(1707835614.581095) COM6 1C7#06A0B95E00003E
(1707835614.581095) COM6 1CE#100007FE
(1707835614.581095) COM6 1E9#0000000600080000
(1707835614.581095) COM6 232#00000000000000
(1707835614.581095) COM6 210#060001FD
(1707835614.581095) COM6 214#060001FD0C01
(1707835614.581095) COM6 2F9#7B00000000000D
(1707835614.581095) COM6 348#000000001B
(1707835614.581095) COM6 34A#000000001B
(1707835614.581095) COM6 362#00000000
(1707835614.581095) COM6 365#00000000
(1707835614.581095) COM6 0C9#0000000000500000
(1707835614.581095) COM6 370#000000000000
(1707835614.581095) COM6 17D#2A2443FF2000
(1707835614.581095) COM6 182#000000
(1707835614.581095) COM6 1BC#480100007C000000
(1707835614.581095) COM6 234#00000000
(1707835614.581095) COM6 2F1#0000000000
(1707835614.581095) COM6 3CB#2FFE00000FF5
(1707835614.581095) COM6 3F9#8000000000000007
(1707835614.581095) COM6 3E7#0068
(1707835614.581095) COM6 2C5#0000000000000000
(1707835614.581095) COM6 0F1#1C0000400000
(1707835614.595095) COM6 0C9#0000000000500000
(1707835614.595095) COM6 1BC#480100007C000000
(1707835614.595095) COM6 0C1#1000000010000000
(1707835614.595095) COM6 0C5#1000000010000000
(1707835614.595095) COM6 0D1#40007FFB00FB00
(1707835614.595095) COM6 1C8#0000000000000000
(1707835614.595095) COM6 1E5#44FFA0700000028F
(1707835614.595095) COM6 3F1#00FFFA0808FF0A68
(1707835614.595095) COM6 451#000000000000
(1707835614.595095) COM6 0C9#0000000000500000
(1707835614.595095) COM6 1BC#480100007C000000
(1707835614.595095) COM6 1F5#0000000F00000700
(1707835614.595095) COM6 4D1#E900000000000000
(1707835614.595095) COM6 0F1#280000400000
(1707835614.595095) COM6 0C9#0000000000500000
(1707835614.595095) COM6 1BC#480100007C000000
(1707835614.595095) COM6 0C1#2000000020000000
(1707835614.595095) COM6 0C5#2000000020000000
(1707835614.595095) COM6 0D1#8000BFFA00FA00
(1707835614.595095) COM6 1C8#40000000FFFF3FFF
(1707835614.595095) COM6 1E1#000004000314E0
(1707835614.595095) COM6 1E5#44FFA0100000022F
(1707835614.595095) COM6 185#03FD
(1707835614.595095) COM6 1C6#0000000000C3FFFD
(1707835614.595095) COM6 1C7#06A0F95D00003E
(1707835614.595095) COM6 1CE#180007FD
(1707835614.611643) COM6 1E9#0000000600080000
(1707835614.611643) COM6 232#00000000000000
(1707835614.611643) COM6 1F3#C0FC00
(1707835614.611643) COM6 0C9#0000000000500000
(1707835614.611643) COM6 1BC#480100007C000000
(1707835614.611643) COM6 4C1#0000740000000000
(1707835614.611643) COM6 1C1#0000000000000000
(1707835614.611643) COM6 451#000000000000
(1707835614.611643) COM6 0F1#340000400000
(1707835614.611643) COM6 0C9#0000000000500000
(1707835614.611643) COM6 1BC#480100007C000000
(1707835614.611643) COM6 0C1#3000000030000000
(1707835614.611643) COM6 0C5#3000000030000000
(1707835614.611643) COM6 0D1#C000FFF900F900
(1707835614.611643) COM6 1C8#80000000FFFE3FFE
(1707835614.611643) COM6 1E5#44FFA0300000024F
(1707835614.611643) COM6 0C9#0000000000500000
(1707835614.611643) COM6 1BC#480100007C000000
(1707835614.611643) COM6 3D1#1000000000000000
(1707835614.611643) COM6 1BD#0000000000000000
(1707835614.611643) COM6 0F1#000000400000
(1707835614.626076) COM6 0C9#0000000000500000
(1707835614.626076) COM6 1BC#480100007C000000
(1707835614.626076) COM6 0C1#0000000000000000
(1707835614.626076) COM6 0C5#0000000000000000
(1707835614.626076) COM6 0D1#00000000000000
(1707835614.626076) COM6 1C8#C0000000FFFD3FFD
(1707835614.626076) COM6 1E5#44FFA0500000026F
(1707835614.626076) COM6 185#03FC
(1707835614.626076) COM6 1C6#0000000000000000
(1707835614.626076) COM6 1C7#06A0396000003E
(1707835614.626076) COM6 1CE#00000000
(1707835614.626076) COM6 1E9#0000000600080000
(1707835614.626076) COM6 232#00000000000000
(1707835614.626076) COM6 451#000000000000
(1707835614.626076) COM6 0C9#0000000000500000
(1707835614.626076) COM6 1BC#480100007C000000
(1707835614.626076) COM6 3E9#0000800000008000
(1707835614.626076) COM6 3C9#0766423C74B6E353
(1707835614.626076) COM6 0F1#1C0000400000
(1707835614.626076) COM6 0C9#0000000000500000
(1707835614.626076) COM6 1BC#480100007C000000
(1707835614.626076) COM6 0C1#1000000010000000
(1707835614.626076) COM6 0C5#1000000010000000
(1707835614.626076) COM6 0D1#40007FFF00FF00
(1707835614.626076) COM6 1C8#0000000000000000
(1707835614.626076) COM6 1E1#000004000018D0
(1707835614.626076) COM6 1E5#44FFA0700000028F
(1707835614.626076) COM6 210#00000000
(1707835614.626076) COM6 214#000000000000
(1707835614.626076) COM6 2F9#80000000000000
(1707835614.626076) COM6 348#000000001B
(1707835614.626076) COM6 34A#000000001B
(1707835614.626076) COM6 362#00000000
(1707835614.626076) COM6 365#00000000
(1707835614.626076) COM6 370#000000000000
(1707835614.626076) COM6 1F3#003C00
(1707835614.641233) COM6 0C9#0000000000500000
(1707835614.641233) COM6 1BC#480100007C000000
(1707835614.641233) COM6 3F9#8000000000000007
(1707835614.641233) COM6 2C5#0000000000000000
(1707835614.641233) COM6 0F1#280000400000
(1707835614.641233) COM6 0C9#0000000000500000
(1707835614.641233) COM6 1BC#480100007C000000
(1707835614.641233) COM6 0C1#2000000020000000
(1707835614.641233) COM6 0C5#2000000020000000
(1707835614.641233) COM6 0D1#8000BFFE00FE00
(1707835614.641233) COM6 12A#0000605D00008080
(1707835614.641233) COM6 1C8#40000000FFFF3FFF
(1707835614.641233) COM6 1E5#44FFA0100000022F
(1707835614.641233) COM6 185#03FC
(1707835614.641233) COM6 1C6#000000000043FFFF
(1707835614.641233) COM6 1C7#06A0795F00003E
(1707835614.641233) COM6 1CE#080007FF
(1707835614.641233) COM6 1E9#0000000600060000
(1707835614.641233) COM6 232#00000000000000
(1707835614.641233) COM6 135#04080D0002180000
(1707835614.641233) COM6 0C9#0000000000500000
(1707835614.641233) COM6 1BC#480100007C000000
(1707835614.641233) COM6 1F5#0000000F00000700
(1707835614.641233) COM6 4D1#E900000000000000
(1707835614.641233) COM6 137#0000000000000000
(1707835614.641233) COM6 0F1#340000400000
(1707835614.641233) COM6 0C9#0000000000500000
(1707835614.657105) COM6 1BC#480100007C000000
(1707835614.657105) COM6 0C1#3000000030000000
(1707835614.657105) COM6 0C5#3000000030000000
(1707835614.657105) COM6 0D1#C000FFFD00FD00
(1707835614.657105) COM6 139#0000000000000000
(1707835614.657105) COM6 1C8#80000000FFFE3FFE
(1707835614.657105) COM6 1E5#44FFA0300000024F
(1707835614.657105) COM6 160#803C96B503
(1707835614.657105) COM6 0C9#0000000000500000
(1707835614.657105) COM6 1BC#480100007C000000
(1707835614.657105) COM6 4C1#0000740000000000
(1707835614.657105) COM6 1C1#0000000000000000
(1707835614.657105) COM6 1F1#AE0F173E18000072
(1707835614.657105) COM6 0F1#000000400000
(1707835614.657105) COM6 0C9#0000000000500000
(1707835614.657105) COM6 1BC#480100007C000000
(1707835614.657105) COM6 0C1#0000000000000000
(1707835614.657105) COM6 0C5#0000000000000000
(1707835614.657105) COM6 0D1#00003FFC00FC00
(1707835614.657105) COM6 1C8#C0000000FFFD3FFD
(1707835614.657105) COM6 1E1#00000400011CC0
(1707835614.657105) COM6 1E5#44FFA0500000026F
(1707835614.657105) COM6 185#03FC
(1707835614.657105) COM6 1C6#000000000083FFFE
(1707835614.657105) COM6 1C7#06A0B95E00003E
(1707835614.657105) COM6 1CE#100007FE
(1707835614.657105) COM6 1E9#0000000600080000
(1707835614.657105) COM6 232#00000000000000
(1707835614.657105) COM6 1F3#407C00
(1707835614.657105) COM6 0C9#0000000000500000
(1707835614.657105) COM6 1BC#480100007C000000
(1707835614.657105) COM6 3D1#1000000000000000
(1707835614.673542) COM6 1BD#0000000000000000
(1707835614.673542) COM6 32A#0000000000000000
(1707835614.673542) COM6 0F1#1C0000400000
(1707835614.673542) COM6 0C9#0000000000500000
(1707835614.673542) COM6 1BC#480100007C000000
(1707835614.673542) COM6 0C1#1000000010000000
(1707835614.673542) COM6 0C5#1000000010000000
(1707835614.673542) COM6 0D1#40007FFB00FB00
(1707835614.673542) COM6 1C8#0000000000000000
(1707835614.673542) COM6 1E5#44FFA0700000028F
(1707835614.673542) COM6 3C9#0766000000000000
(1707835614.673542) COM6 3CB#2FFE00000FF5
(1707835614.673542) COM6 0C9#0000000000500000
(1707835614.673542) COM6 1BC#480100007C000000
(1707835614.673542) COM6 3E9#0000800000008000
(1707835614.673542) COM6 3C9#0766423C74B6E353
(1707835614.673542) COM6 3E7#0068
(1707835614.673542) COM6 0F1#280000400000
(1707835614.673542) COM6 0C9#0000000000500000
(1707835614.673542) COM6 1BC#480100007C000000
(1707835614.673542) COM6 0C1#2000000020000000
(1707835614.691535) COM6 0C5#2000000020000000
(1707835614.691535) COM6 0D1#8000BFFA00FA00
(1707835614.691535) COM6 1C8#40000000FFFF3FFF
(1707835614.691535) COM6 1E5#44FFA0100000022F
(1707835614.691535) COM6 185#03FB
(1707835614.691535) COM6 1C6#0000000000C3FFFD
(1707835614.691535) COM6 1C7#06A0F95D00003E
(1707835614.691535) COM6 1CE#180007FD
(1707835614.691535) COM6 1E9#0000000600080000
(1707835614.691535) COM6 232#00000000000000
(1707835614.691535) COM6 210#020001FF
(1707835614.691535) COM6 214#020001FF0403
(1707835614.691535) COM6 2F9#8B000000000007
(1707835614.691535) COM6 0C9#0000000000500000
(1707835614.691535) COM6 348#000000001B
(1707835614.691535) COM6 34A#000000001B
(1707835614.691535) COM6 1BC#480100007C000000
(1707835614.691535) COM6 362#00000000
(1707835614.691535) COM6 365#00000000
(1707835614.691535) COM6 370#000000000000
(1707835614.691535) COM6 17D#2A2443FF2000
(1707835614.691535) COM6 182#000000
(1707835614.691535) COM6 234#00000000
(1707835614.691535) COM6 2F1#0000000000
(1707835614.691535) COM6 3F9#8000000000000007
(1707835614.691535) COM6 451#000000000000
(1707835614.691535) COM6 2C5#0000000000000000
(1707835614.691535) COM6 0C9#0000000000500000
(1707835614.691535) COM6 0F1#340000400000
(1707835614.691535) COM6 1BC#480100007C000000
(1707835614.691535) COM6 0C1#3000000030000000
(1707835614.691535) COM6 0C5#3000000030000000
(1707835614.691535) COM6 0D1#C000FFF900F900
(1707835614.691535) COM6 1C8#80000000FFFE3FFE
(1707835614.691535) COM6 1E1#000004000210F0
(1707835614.691535) COM6 1E5#44FFA0300000024F
(1707835614.691535) COM6 1F3#80BC00
(1707835614.691535) COM6 0C9#0000000000500000
(1707835614.691535) COM6 1BC#480100007C000000
(1707835614.691535) COM6 1F5#0000000F00000700
(1707835614.691535) COM6 4D1#E900000000000000
(1707835614.691535) COM6 0C9#0000000000500000
(1707835614.691535) COM6 0F1#000000400000
(1707835614.705536) COM6 1BC#480100007C000000
(1707835614.705536) COM6 0C1#0000000000000000
(1707835614.705536) COM6 0C5#0000000000000000
(1707835614.705536) COM6 0D1#00000000000000
(1707835614.705536) COM6 1C8#C0000000FFFD3FFD
(1707835614.705536) COM6 1E5#44FFA0500000026F
(1707835614.705536) COM6 185#03FC
(1707835614.705536) COM6 1C6#0000000000000000
(1707835614.705536) COM6 1C7#06A0396000003E
(1707835614.705536) COM6 1CE#00000000
(1707835614.705536) COM6 1E9#0000000600080000
(1707835614.705536) COM6 232#00000000000000
(1707835614.705536) COM6 451#000000000000
(1707835614.705536) COM6 0C9#0000000000500000
(1707835614.705536) COM6 1BC#480100007C000000
(1707835614.705536) COM6 4C1#0000740000000000
(1707835614.705536) COM6 1C1#0000000000000000
(1707835614.705536) COM6 0C9#0000000000500000
(1707835614.705536) COM6 0F1#1C0000400000
(1707835614.705536) COM6 1BC#480100007C000000
(1707835614.705536) COM6 0C1#1000000010000000
(1707835614.705536) COM6 0C5#1000000010000000
(1707835614.705536) COM6 0D1#40007FFF00FF00
(1707835614.705536) COM6 1C8#0000000000000000
(1707835614.705536) COM6 1E5#44FFA0700000028F
(1707835614.705536) COM6 0C9#0000000000500000
(1707835614.721260) COM6 1BC#480100007C000000
(1707835614.721260) COM6 3D1#1000000000000000
(1707835614.721260) COM6 1BD#0000000000000000
(1707835614.721260) COM6 0C9#0000000000500000
(1707835614.721260) COM6 0F1#280000400000
(1707835614.721260) COM6 1BC#480100007C000000
(1707835614.721260) COM6 0C1#2000000020000000
(1707835614.721260) COM6 0C5#2000000020000000
(1707835614.721260) COM6 0D1#8000BFFE00FE00
(1707835614.721260) COM6 1C8#40000000FFFF3FFF
(1707835614.721260) COM6 1E1#000004000314E0
(1707835614.721260) COM6 1E5#44FFA0100000022F
(1707835614.721260) COM6 185#03FC
(1707835614.721260) COM6 1C6#000000000043FFFF
(1707835614.721260) COM6 1C7#06A0795F00003E
(1707835614.721260) COM6 1CE#080007FF
(1707835614.721260) COM6 1E9#0000000600060000
(1707835614.721260) COM6 232#00000000000000
(1707835614.721260) COM6 0C9#0000000000500000
(1707835614.721260) COM6 1F3#C0FC00
(1707835614.721260) COM6 1BC#480100007C000000
(1707835614.721260) COM6 3E9#0000800000008000
(1707835614.721260) COM6 3C9#0766423C74B6E353
(1707835614.721260) COM6 451#000000000000
(1707835614.721260) COM6 0C9#0000000000500000
(1707835614.736357) COM6 0F1#340000400000
(1707835614.736357) COM6 1BC#480100007C000000
(1707835614.736357) COM6 0C1#3000000030000000
(1707835614.736357) COM6 0C5#3000000030000000
(1707835614.736357) COM6 0D1#C000FFFD00FD00
(1707835614.736357) COM6 1C8#80000000FFFE3FFE
(1707835614.736357) COM6 1E5#44FFA0300000024F
(1707835614.736357) COM6 210#040001FE
(1707835614.736357) COM6 214#040001FE0802
(1707835614.736357) COM6 2F9#9300000000000A
(1707835614.736357) COM6 348#000000001B
(1707835614.736357) COM6 34A#000000001B
(1707835614.736357) COM6 362#00000000
(1707835614.736357) COM6 365#00000000
(1707835614.736357) COM6 370#000000000000
(1707835614.736357) COM6 0C9#0000000000500000
(1707835614.736357) COM6 1BC#480100007C000000
(1707835614.736357) COM6 3F9#8000000000000007
(1707835614.736357) COM6 2C5#0000000000000000
(1707835614.736357) COM6 0C9#0000000000500000
(1707835614.736357) COM6 0F1#000000400000
(1707835614.736357) COM6 1BC#480100007C000000
(1707835614.736357) COM6 0C1#0000000000000000
(1707835614.736357) COM6 0C5#0000000000000000
(1707835614.736357) COM6 0D1#00003FFC00FC00
(1707835614.736357) COM6 12A#0000605D00008080
(1707835614.736357) COM6 1C8#C0000000FFFD3FFD
(1707835614.736357) COM6 1E5#44FFA0500000026F
(1707835614.736357) COM6 185#03FC
(1707835614.736357) COM6 1C6#000000000083FFFE
(1707835614.736357) COM6 1C7#06A0B95E00003E
(1707835614.736357) COM6 1CE#100007FE
(1707835614.736357) COM6 1E9#0000000600060000
(1707835614.736357) COM6 232#00000000000000
(1707835614.736357) COM6 135#04080D0002180000
(1707835614.736357) COM6 0C9#0000000000500000
(1707835614.751530) COM6 1BC#480100007C000000
(1707835614.751530) COM6 1F5#0000000F00000700
(1707835614.751530) COM6 4D1#E900000000000000
(1707835614.751530) COM6 137#0000000000000000
(1707835614.751530) COM6 0C9#0000000000500000
(1707835614.751530) COM6 1BC#480100007C000000
(1707835614.751530) COM6 0F1#1C0000400000
(1707835614.751530) COM6 0C1#1000000010000000
(1707835614.751530) COM6 0C5#1000000010000000
(1707835614.751530) COM6 0D1#40007FFB00FB00
(1707835614.751530) COM6 139#0000000000000000
(1707835614.751530) COM6 1C8#0000000000000000
(1707835614.751530) COM6 1E5#44FFA0700000028F
(1707835614.751530) COM6 0C9#0000000000500000
(1707835614.751530) COM6 160#803C96B503
(1707835614.751530) COM6 1BC#480100007C000000
(1707835614.751530) COM6 4C1#0000740000000000
(1707835614.751530) COM6 1C1#0000000000000000
(1707835614.751530) COM6 1E1#000004000018D0
(1707835614.751530) COM6 0C9#0000000000500000
(1707835614.751530) COM6 1BC#480100007C000000
(1707835614.751530) COM6 0F1#280000400000
(1707835614.753567) COM6 0C1#2000000020000000
(1707835614.753567) COM6 0C5#2000000020000000
(1707835614.753567) COM6 0D1#8000BFFA00FA00
(1707835614.766771) COM6 1C8#40000000FFFF3FFF
(1707835614.766771) COM6 1E5#44FFA0100000022F
(1707835614.766771) COM6 185#03FB
(1707835614.766771) COM6 1C6#0000000000C3FFFD
(1707835614.766771) COM6 1C7#06A0F95D00003E
(1707835614.766771) COM6 1CE#180007FD
(1707835614.766771) COM6 1E9#0000000600060000
(1707835614.766771) COM6 1F1#AE0F173E18000072
(1707835614.766771) COM6 0C9#0000000000500000
(1707835614.766771) COM6 232#00000000000000
(1707835614.766771) COM6 1BC#480100007C000000
(1707835614.766771) COM6 1F3#003C00
(1707835614.766771) COM6 3D1#1000000000000000
(1707835614.766771) COM6 1BD#0000000000000000
(1707835614.766771) COM6 32A#0000000000000000
(1707835614.766771) COM6 0C9#0000000000500000
(1707835614.766771) COM6 1BC#480100007C000000
(1707835614.766771) COM6 0F1#340000400000
(1707835614.766771) COM6 0C1#3000000030000000
(1707835614.766771) COM6 0C5#3000000030000000
(1707835614.766771) COM6 0D1#C000FFF900F900
(1707835614.766771) COM6 1C8#80000000FFFE3FFE
(1707835614.766771) COM6 1E5#44FFA0300000024F
(1707835614.766771) COM6 3C9#0766000000000000
(1707835614.766771) COM6 0C9#0000000000500000
(1707835614.766771) COM6 1BC#480100007C000000
(1707835614.766771) COM6 3CB#2FFE00000FF5
(1707835614.766771) COM6 3E9#0000800000008000
(1707835614.766771) COM6 3C9#0766423C74B6E353
(1707835614.768854) COM6 3E7#0068
(1707835614.770859) COM6 0C9#0000000000500000
(1707835614.783232) COM6 1BC#480100007C000000
(1707835614.783232) COM6 0F1#000000400000
(1707835614.783232) COM6 0C1#0000000000000000
(1707835614.783232) COM6 0C5#0000000000000000
(1707835614.783232) COM6 0D1#00000000000000
(1707835614.783232) COM6 1C8#C0000000FFFD3FFD
(1707835614.783232) COM6 1E1#00000400011CC0
(1707835614.783232) COM6 1E5#44FFA0500000026F
(1707835614.783232) COM6 185#03FB
(1707835614.783232) COM6 1C6#0000000000000000
(1707835614.783232) COM6 1C7#06A0396000003E
(1707835614.783232) COM6 1CE#00000000
(1707835614.783232) COM6 1E9#0000000600080000
(1707835614.783232) COM6 0C9#0000000000500000
(1707835614.783232) COM6 232#00000000000000
(1707835614.783232) COM6 1BC#480100007C000000
(1707835614.783232) COM6 1F3#407C00
(1707835614.783232) COM6 210#060001FD
(1707835614.783232) COM6 214#060001FD0C01
(1707835614.783232) COM6 2F9#9B00000000000D
(1707835614.783232) COM6 348#000000001B
(1707835614.783232) COM6 34A#000000001B
(1707835614.783232) COM6 362#00000000
(1707835614.783232) COM6 365#00000000
(1707835614.783232) COM6 370#000000000000
(1707835614.783232) COM6 17D#2A2443FF2000
(1707835614.783232) COM6 182#000000
(1707835614.783232) COM6 234#00000000
(1707835614.783232) COM6 2F1#0000000000
(1707835614.783232) COM6 3F9#8000000000000007
(1707835614.783232) COM6 451#000000000000
(1707835614.783232) COM6 2C5#0000000000000000
(1707835614.783232) COM6 0C9#0000000000500000
(1707835614.783232) COM6 1BC#480100007C000000
(1707835614.783232) COM6 0F1#1C0000400000
(1707835614.783232) COM6 0C1#1000000010000000
(1707835614.800315) COM6 0C5#1000000010000000
(1707835614.800315) COM6 0D1#40007FFF00FF00
(1707835614.800315) COM6 1C8#0000000000000000
(1707835614.800315) COM6 1E5#44FFA0700000028F
(1707835614.800315) COM6 0C9#0000000000500000
(1707835614.800315) COM6 1BC#480100007C000000
(1707835614.800315) COM6 1F5#0000000F00000700
(1707835614.800315) COM6 4D1#E900000000000000
(1707835614.800315) COM6 0C9#0000000000500000
(1707835614.800315) COM6 1BC#480100007C000000
(1707835614.800315) COM6 0F1#280000400000
(1707835614.800315) COM6 0C1#2000000020000000
(1707835614.800315) COM6 0C5#2000000020000000
(1707835614.800315) COM6 0D1#8000BFFE00FE00
(1707835614.800315) COM6 1C8#40000000FFFF3FFF
(1707835614.800315) COM6 1E5#44FFA0100000022F
(1707835614.800315) COM6 185#03FB
(1707835614.800315) COM6 1C6#000000000043FFFF
(1707835614.800315) COM6 1C7#06A0795F00003E
(1707835614.800315) COM6 1CE#080007FF
(1707835614.800315) COM6 1E9#0000000600080000
(1707835614.800315) COM6 0C9#0000000000500000
(1707835614.800315) COM6 232#00000000000000
(1707835614.800315) COM6 1BC#480100007C000000
(1707835614.800315) COM6 451#000000000000
(1707835614.800315) COM6 4C1#0000740000000000
(1707835614.800315) COM6 1C1#0000000000000000
(1707835614.800315) COM6 0C9#0000000000500000
(1707835614.814217) COM6 1BC#480100007C000000
(1707835614.814217) COM6 0F1#340000400000
(1707835614.814217) COM6 0C1#3000000030000000
(1707835614.814217) COM6 0C5#3000000030000000
(1707835614.814217) COM6 0D1#C000FFFD00FD00
(1707835614.814217) COM6 1C8#80000000FFFE3FFE
(1707835614.814217) COM6 1E1#000004000210F0
(1707835614.814217) COM6 1E5#44FFA0300000024F
(1707835614.814217) COM6 0C9#0000000000500000
(1707835614.814217) COM6 1BC#480100007C000000
(1707835614.814217) COM6 3D1#1000000000000000
(1707835614.814217) COM6 1F3#80BC00
(1707835614.814217) COM6 1BD#0000000000000000
(1707835614.814217) COM6 0C9#0000000000500000
(1707835614.814217) COM6 1BC#480100007C000000
(1707835614.814217) COM6 0F1#000000400000
(1707835614.814217) COM6 0C1#0000000000000000
(1707835614.814217) COM6 0C5#0000000000000000
(1707835614.814217) COM6 0D1#00003FFC00FC00
(1707835614.814217) COM6 1C8#C0000000FFFD3FFD
(1707835614.814217) COM6 1E5#44FFA0500000026F
(1707835614.814217) COM6 185#03FB
(1707835614.829831) COM6 1C6#000000000083FFFE
(1707835614.829831) COM6 1C7#06A0B95E00003E
(1707835614.829831) COM6 1CE#100007FE
(1707835614.829831) COM6 0C9#0000000000500000
(1707835614.829831) COM6 1E9#0000000600060000
(1707835614.829831) COM6 1BC#480100007C000000
(1707835614.829831) COM6 232#00000000000000
(1707835614.829831) COM6 451#000000000000
(1707835614.829831) COM6 3E9#0000800000008000
(1707835614.829831) COM6 3C9#0766423C74B6E353
(1707835614.829831) COM6 0C9#0000000000500000
(1707835614.829831) COM6 1BC#480100007C000000
(1707835614.829831) COM6 0F1#1C0000400000
(1707835614.829831) COM6 0C1#1000000010000000
(1707835614.829831) COM6 0C5#1000000010000000
(1707835614.829831) COM6 0D1#40007FFB00FB00
(1707835614.829831) COM6 1C8#0000000000000000
(1707835614.829831) COM6 1E5#44FFA0700000028F
(1707835614.829831) COM6 210#00000000
(1707835614.829831) COM6 214#000000000000
(1707835614.829831) COM6 2F9#A0000000000000
(1707835614.829831) COM6 348#000000001B
(1707835614.829831) COM6 0C9#0000000000500000
(1707835614.829831) COM6 34A#000000001B
(1707835614.829831) COM6 1BC#480100007C000000
(1707835614.829831) COM6 362#00000000
(1707835614.829831) COM6 365#00000000
(1707835614.829831) COM6 370#000000000000
(1707835614.829831) COM6 3F9#8000000000000007
(1707835614.829831) COM6 2C5#0000000000000000
(1707835614.829831) COM6 0C9#0000000000500000
(1707835614.845822) COM6 1BC#480100007C000000
(1707835614.845822) COM6 0F1#280000400000
(1707835614.845822) COM6 0C1#2000000020000000
(1707835614.845822) COM6 0C5#2000000020000000
(1707835614.845822) COM6 0D1#8000BFFA00FA00
(1707835614.845822) COM6 12A#0000605D00008080
(1707835614.845822) COM6 1C8#40000000FFFF3FFF
(1707835614.845822) COM6 1E5#44FFA0100000022F
(1707835614.845822) COM6 185#03FB
(1707835614.845822) COM6 1C6#0000000000C3FFFD
(1707835614.845822) COM6 1C7#06A0F95D00003E
(1707835614.845822) COM6 1CE#180007FD
(1707835614.845822) COM6 1E9#0000000600060000
(1707835614.845822) COM6 0C9#0000000000500000
(1707835614.845822) COM6 232#00000000000000
(1707835614.845822) COM6 1BC#480100007C000000
(1707835614.845822) COM6 135#04080D0002180000
(1707835614.845822) COM6 1F5#0000000F00000700
(1707835614.845822) COM6 4D1#E900000000000000
(1707835614.845822) COM6 137#0000000000000000
(1707835614.845822) COM6 0C9#0000000000500000
(1707835614.845822) COM6 1BC#480100007C000000
(1707835614.845822) COM6 0F1#340000400000
(1707835614.845822) COM6 0C1#3000000030000000
(1707835614.845822) COM6 0C5#3000000030000000
(1707835614.845822) COM6 0D1#C000FFF900F900
(1707835614.845822) COM6 139#0000000000000000
(1707835614.845822) COM6 1C8#80000000FFFE3FFE
(1707835614.845822) COM6 1E5#44FFA0300000024F
(1707835614.845822) COM6 0C9#0000000000500000
(1707835614.845822) COM6 1BC#480100007C000000
(1707835614.845822) COM6 4C1#0000740000000000
(1707835614.863663) COM6 140#000202
(1707835614.863663) COM6 1C1#0000000000000000
(1707835614.863663) COM6 160#803C96B503
(1707835614.863663) COM6 0C9#0000000000500000
(1707835614.863663) COM6 1BC#480100007C000000
(1707835614.863663) COM6 0F1#000000400000
(1707835614.863663) COM6 0C1#0000000000000000
(1707835614.863663) COM6 0C5#0000000000000000
(1707835614.863663) COM6 0D1#00000000000000
(1707835614.863663) COM6 1C8#C0000000FFFD3FFD
(1707835614.863663) COM6 1E1#000004000314E0
(1707835614.863663) COM6 1E5#44FFA0500000026F
(1707835614.863663) COM6 185#03FB
(1707835614.863663) COM6 1C6#0000000000000000
(1707835614.863663) COM6 0C9#0000000000500000
(1707835614.863663) COM6 1C7#06A0396000003E
(1707835614.863663) COM6 1BC#480100007C000000
(1707835614.863663) COM6 1CE#00000000
(1707835614.863663) COM6 1E9#0000000600060000
(1707835614.863663) COM6 232#00000000000000
(1707835614.863663) COM6 1F1#AE0F173E18000072
(1707835614.863663) COM6 3D1#1000000000000000
(1707835614.863663) COM6 1BD#0000000000000000
(1707835614.863663) COM6 1F3#C0FC00
(1707835614.863663) COM6 0C9#0000000000500000
(1707835614.863663) COM6 1BC#480100007C000000
(1707835614.863663) COM6 0F1#1C0000400000
(1707835614.863663) COM6 0C1#1000000010000000
(1707835614.863663) COM6 0C5#1000000010000000
(1707835614.876808) COM6 0D1#40007FFF00FF00
(1707835614.876808) COM6 1C8#0000000000000000
(1707835614.876808) COM6 1E1#000004000018D0
(1707835614.876808) COM6 1E5#44FFA0700000028F
(1707835614.876808) COM6 0C9#0000000000500000
(1707835614.876808) COM6 1BC#480100007C000000
(1707835614.876808) COM6 3E9#0000800000008000
(1707835614.876808) COM6 32A#0000000000000000
(1707835614.876808) COM6 3C9#0766423C74B6E353
(1707835614.876808) COM6 3C9#0766000000000000
(1707835614.876808) COM6 0C9#0000000000500000
(1707835614.876808) COM6 1BC#480100007C000000
(1707835614.876808) COM6 0F1#280000400000
(1707835614.876808) COM6 0C1#2000000020000000
(1707835614.876808) COM6 0C5#2000000020000000
(1707835614.876808) COM6 0D1#8000BFFE00FE00
(1707835614.876808) COM6 1C8#40000000FFFF3FFF
(1707835614.876808) COM6 1E5#44FFA0100000022F
(1707835614.876808) COM6 185#03FB
(1707835614.876808) COM6 1C6#000000000043FFFF
(1707835614.876808) COM6 0C9#0000000000500000
(1707835614.876808) COM6 1C7#06A0795F00003E
(1707835614.876808) COM6 1BC#480100007C000000
(1707835614.876808) COM6 1CE#080007FF
(1707835614.876808) COM6 1E9#0000000600080000
(1707835614.876808) COM6 1F3#003C00
(1707835614.876808) COM6 232#00000000000000
(1707835614.876808) COM6 210#020001FF
(1707835614.876808) COM6 214#020001FF0403
(1707835614.876808) COM6 2F9#A8000000000007
(1707835614.876808) COM6 348#000000001B
(1707835614.893768) COM6 34A#000000001B
(1707835614.893768) COM6 362#00000000
(1707835614.893768) COM6 365#00000000
(1707835614.893768) COM6 370#000000000000
(1707835614.893768) COM6 17D#2A2443FF2000
(1707835614.893768) COM6 182#000000
(1707835614.893768) COM6 234#00000000
(1707835614.893768) COM6 2F1#0000000000
(1707835614.893768) COM6 3CB#2FFE00000FF5
(1707835614.893768) COM6 3F9#8000000000000007
(1707835614.893768) COM6 500#303003B9
(1707835614.893768) COM6 2C5#0000000000000000
(1707835614.893768) COM6 773#00280000000000
(1707835614.893768) COM6 0C9#0000000000500000
(1707835614.893768) COM6 780#00310000000000
(1707835614.893768) COM6 1BC#480100007C000000
(1707835614.893768) COM6 0F1#340000400000
(1707835614.893768) COM6 0C1#3000000030000000
(1707835614.893768) COM6 0C5#3000000030000000
(1707835614.893768) COM6 0D1#C000FFFD00FD00
(1707835614.893768) COM6 1C8#80000000FFFE3FFE
(1707835614.893768) COM6 1E5#44FFA0300000024F
(1707835614.893768) COM6 3E7#0068
(1707835614.893768) COM6 0C9#0000000000500000
(1707835614.893768) COM6 1BC#480100007C000000
(1707835614.893768) COM6 1F5#0000000F00000700
(1707835614.893768) COM6 3F1#00FFFA0808FF0A68
(1707835614.893768) COM6 4D1#E900000000000000
(1707835614.893768) COM6 451#000000000000
(1707835614.893768) COM6 0C9#0000000000500000
(1707835614.893768) COM6 1BC#480100007C000000
(1707835614.893768) COM6 0F1#000000400000
(1707835614.893768) COM6 0C1#0000000000000000
(1707835614.909175) COM6 0C5#0000000000000000
(1707835614.909175) COM6 0D1#00003FFC00FC00
(1707835614.909175) COM6 1C8#C0000000FFFD3FFD
(1707835614.909175) COM6 1E1#00000400011CC0
(1707835614.909175) COM6 1E5#44FFA0500000026F
(1707835614.909175) COM6 0C9#0000000000500000
(1707835614.909175) COM6 185#03FB
(1707835614.909175) COM6 1BC#480100007C000000
(1707835614.909175) COM6 1C6#000000000083FFFE
(1707835614.909175) COM6 1C7#06A0B95E00003E
(1707835614.909175) COM6 1CE#100007FE
(1707835614.909175) COM6 1E9#0000000600080000
(1707835614.909175) COM6 1F3#407C00
(1707835614.909175) COM6 232#00000000000000
(1707835614.909175) COM6 4C1#0000740000000000
(1707835614.909175) COM6 1C1#0000000000000000
(1707835614.909175) COM6 4C5#000000
(1707835614.909175) COM6 0C9#0000000000500000
(1707835614.909175) COM6 1BC#480100007C000000
(1707835614.909175) COM6 0F1#1C0000400000
(1707835614.909175) COM6 0C1#1000000010000000
(1707835614.909175) COM6 0C5#1000000010000000
(1707835614.909175) COM6 0D1#40007FFB00FB00
(1707835614.909175) COM6 1C8#0000000000000000
(1707835614.909175) COM6 1E5#44FFA0700000028F
(1707835614.909175) COM6 0C9#0000000000500000
(1707835614.909175) COM6 451#000000000000
(1707835614.909175) COM6 1BC#480100007C000000
(1707835614.909175) COM6 3D1#1000000000000000
(1707835614.909175) COM6 1BD#0000000000000000
(1707835614.909175) COM6 4D7#013986DAA2
(1707835614.909175) COM6 4E1#4B34303238383139
(1707835614.924054) COM6 0C9#0000000000500000
(1707835614.924054) COM6 1BC#480100007C000000
(1707835614.924054) COM6 0F1#280000400000
(1707835614.924054) COM6 0C1#2000000020000000
(1707835614.924054) COM6 0C5#2000000020000000
(1707835614.924054) COM6 0D1#8000BFFA00FA00
(1707835614.924054) COM6 1C8#40000000FFFF3FFF
(1707835614.924054) COM6 1E5#44FFA0100000022F
(1707835614.924054) COM6 0C9#0000000000500000
(1707835614.924054) COM6 185#03FC
(1707835614.924054) COM6 1C6#0000000000C3FFFD
(1707835614.924054) COM6 1BC#480100007C000000
(1707835614.924054) COM6 1C7#06A0F95D00003E
(1707835614.924054) COM6 1CE#180007FD
(1707835614.924054) COM6 1E9#0000000600060000
(1707835614.924054) COM6 232#00000000000000
(1707835614.924054) COM6 3E9#0000800000008000
(1707835614.924054) COM6 451#000000000000
(1707835614.924054) COM6 3C9#0766423C74B6E353
(1707835614.924054) COM6 4E9#E14001094625
(1707835614.924054) COM6 0C9#0000000000500000
(1707835614.924054) COM6 1BC#480100007C000000
(1707835614.924054) COM6 0F1#340000400000
(1707835614.924054) COM6 0C1#3000000030000000
(1707835614.924054) COM6 0C5#3000000030000000
(1707835614.924054) COM6 0D1#C000FFF900F900
(1707835614.924054) COM6 1C8#80000000FFFE3FFE
(1707835614.924054) COM6 1E1#000004000210F0
(1707835614.941601) COM6 0C9#0000000000500000
(1707835614.941601) COM6 1E5#44FFA0300000024F
(1707835614.941601) COM6 1BC#480100007C000000
(1707835614.941601) COM6 210#040001FE
(1707835614.941601) COM6 214#040001FE0802
(1707835614.941601) COM6 2F9#B000000000000A
(1707835614.941601) COM6 348#000000001B
(1707835614.941601) COM6 34A#000000001B
(1707835614.941601) COM6 362#00000000
(1707835614.941601) COM6 365#00000000
(1707835614.941601) COM6 1F3#80BC00
(1707835614.941601) COM6 370#000000000000
(1707835614.941601) COM6 3F9#8000000000000007
(1707835614.941601) COM6 2C5#0000000000000000
(1707835614.941601) COM6 514#3056305845503638
(1707835614.941601) COM6 0C9#0000000000500000
(1707835614.941601) COM6 1BC#480100007C000000
(1707835614.941601) COM6 0F1#000000400000
(1707835614.941601) COM6 0C1#0000000000000000
(1707835614.941601) COM6 0C5#0000000000000000
(1707835614.941601) COM6 0D1#00000000000000
(1707835614.941601) COM6 12A#0000605D00008080
(1707835614.941601) COM6 1C8#C0000000FFFD3FFD
(1707835614.941601) COM6 1E5#44FFA0500000026F
(1707835614.941601) COM6 0C9#0000000000500000
(1707835614.941601) COM6 185#03FC
(1707835614.941601) COM6 1C6#0000000000000000
(1707835614.941601) COM6 1BC#480100007C000000
(1707835614.941601) COM6 1C7#06A0396000003E
(1707835614.941601) COM6 1CE#00000000
(1707835614.941601) COM6 1E9#0000000600060000
(1707835614.941601) COM6 135#04080D0002180000
(1707835614.941601) COM6 1F5#0000000F00000700
(1707835614.941601) COM6 232#00000000000000
(1707835614.941601) COM6 4D1#E900000000000000
(1707835614.941601) COM6 137#0000000000000000
(1707835614.941601) COM6 0C9#0000000000500000
(1707835614.941601) COM6 1BC#480100007C000000
(1707835614.941601) COM6 0F1#1C0000400000
(1707835614.955279) COM6 0C1#1000000010000000
(1707835614.955279) COM6 0C5#1000000010000000
(1707835614.955279) COM6 0D1#40007FFF00FF00
(1707835614.955279) COM6 139#0000000000000000
(1707835614.955279) COM6 0C9#0000000000500000
(1707835614.955279) COM6 1C8#0000000000000000
(1707835614.955279) COM6 1BC#480100007C000000
(1707835614.955279) COM6 1E5#44FFA0700000028F
(1707835614.955279) COM6 4C1#0000740000000000
(1707835614.955279) COM6 1C1#0000000000000000
(1707835614.955279) COM6 160#803C96B503
(1707835614.955279) COM6 1F1#AE0F173E18000072
(1707835614.955279) COM6 0C9#0000000000500000
(1707835614.955279) COM6 1BC#480100007C000000
(1707835614.955279) COM6 0F1#280000400000
(1707835614.955279) COM6 0C1#2000000020000000
(1707835614.955279) COM6 0C5#2000000020000000
(1707835614.955279) COM6 0D1#8000BFFE00FE00
(1707835614.955279) COM6 1C8#40000000FFFF3FFF
(1707835614.955279) COM6 0C9#0000000000500000
(1707835614.955279) COM6 1E1#000004000314E0
(1707835614.955279) COM6 1BC#480100007C000000
(1707835614.955279) COM6 1E5#44FFA0100000022F
(1707835614.955279) COM6 185#03FC
(1707835614.955279) COM6 1C6#000000000043FFFF
(1707835614.970829) COM6 1C7#06A0795F00003E
(1707835614.970829) COM6 1CE#080007FF
(1707835614.970829) COM6 1E9#0000000600080000
(1707835614.970829) COM6 232#00000000000000
(1707835614.970829) COM6 1F3#C0FC00
(1707835614.970829) COM6 3D1#1000000000000000
(1707835614.970829) COM6 1BD#0000000000000000
(1707835614.970829) COM6 32A#0000000000000000
(1707835614.970829) COM6 0C9#0000000000500000
(1707835614.970829) COM6 1BC#480100007C000000
