(1707835158.001513) COM6 1E1#000004000314E0
(1707835158.003531) COM6 0F1#280000400000
(1707835158.005620) COM6 0C1#50089CDE90011FE8
(1707835158.009526) COM6 0C5#1000000010000000
(1707835158.009526) COM6 0D1#40007FFF00FF00
(1707835158.009526) COM6 1C8#0000000000000000
(1707835158.009526) COM6 1E5#44FFAD700000029C
(1707835158.009526) COM6 1F1#AE0F173E18000072
(1707835158.009526) COM6 1F3#C0FC00
(1707835158.011522) COM6 32A#0000000000000000
(1707835158.013526) COM6 0F1#340000400000
(1707835158.015523) COM6 0C1#60089CDEA0011FE8
(1707835158.023967) COM6 0C5#2000000020000000
(1707835158.023967) COM6 0D1#8000BFFE00FE00
(1707835158.023967) COM6 1C8#40000000FFFF3FFF
(1707835158.023967) COM6 1E5#44FFAD100000023C
(1707835158.023967) COM6 185#03FB
(1707835158.023967) COM6 1C6#000000000043FFFF
(1707835158.023967) COM6 1C7#06A0795F00003E
(1707835158.023967) COM6 1CE#080007FF
(1707835158.023967) COM6 1E9#0000000600080000
(1707835158.023967) COM6 232#00000000000000
(1707835158.023967) COM6 3C9#0766000000000000
(1707835158.023967) COM6 3CB#2E81000001F4
(1707835158.023967) COM6 3E7#0068
(1707835158.023967) COM6 0F1#000000400000
(1707835158.043448) COM6 0C1#70089CDEB0011FE8
(1707835158.043448) COM6 0C5#3000000030000000
(1707835158.043448) COM6 0D1#C000FFFD00FD00
(1707835158.043448) COM6 1C8#80000000FFFE3FFE
(1707835158.043448) COM6 1E1#000004000018D0
(1707835158.043448) COM6 1E5#44FFAD300000025C
(1707835158.043448) COM6 1F3#003C00
(1707835158.043448) COM6 451#000000000000
(1707835158.043448) COM6 0F1#1C0000400000
(1707835158.043448) COM6 0C1#40089CDE80011FE8
(1707835158.043448) COM6 0C5#0000000000000000
(1707835158.043448) COM6 0D1#00003FFC00FC00
(1707835158.043448) COM6 1C8#C0000000FFFD3FFD
(1707835158.043448) COM6 1E5#44FFAD500000027C
(1707835158.043448) COM6 185#03FC
(1707835158.043448) COM6 1C6#000000000083FFFE
(1707835158.043448) COM6 1C7#06A0B95E00003E
(1707835158.043448) COM6 1CE#100007FE
(1707835158.043448) COM6 1E9#0000000600080000
(1707835158.043448) COM6 232#00000000000000
(1707835158.043448) COM6 210#060001FD
(1707835158.043448) COM6 214#060001FD0C01
(1707835158.043448) COM6 2F9#3B00000000010D
(1707835158.043448) COM6 348#000000001B
(1707835158.043448) COM6 34A#000000001B
(1707835158.043448) COM6 362#00000000
(1707835158.043448) COM6 365#00000000
(1707835158.043448) COM6 370#000000000000
(1707835158.043448) COM6 17D#2A2443FF2000
(1707835158.043448) COM6 182#000000
(1707835158.043448) COM6 234#00000000
(1707835158.043448) COM6 2F1#0000000000
(1707835158.043448) COM6 0F1#280000400000
(1707835158.045448) COM6 0C1#50089CDE90011FE8
(1707835158.055447) COM6 0C5#1000000010000000
(1707835158.055447) COM6 0D1#40007FFB00FB00
(1707835158.055447) COM6 1C8#0000000000000000
(1707835158.055447) COM6 1E5#44FFAD700000029C
(1707835158.055447) COM6 451#000000000000
(1707835158.055447) COM6 0F1#340000400000
(1707835158.055447) COM6 0C1#60089CDEA0011FE8
(1707835158.073690) COM6 0C5#2000000020000000
(1707835158.073690) COM6 0D1#8000BFFA00FA00
(1707835158.073690) COM6 1C8#40000000FFFF3FFF
(1707835158.073690) COM6 1E1#00000400011CC0
(1707835158.073690) COM6 1E5#44FFAD100000023C
(1707835158.073690) COM6 185#03FB
(1707835158.073690) COM6 1C6#0000000000C3FFFD
(1707835158.073690) COM6 1C7#06A0F95D00003E
(1707835158.073690) COM6 1CE#180007FD
(1707835158.073690) COM6 1E9#0000000600080000
(1707835158.073690) COM6 232#00000000000000
(1707835158.073690) COM6 1F3#407C00
(1707835158.073690) COM6 0F1#000000400000
(1707835158.073690) COM6 0C1#70089CDEB0011FE8
(1707835158.073690) COM6 0C5#3000000030000000
(1707835158.073690) COM6 0D1#C000FFF900F900
(1707835158.073690) COM6 1C8#80000000FFFE3FFE
(1707835158.073690) COM6 1E5#44FFAD300000025C
(1707835158.073690) COM6 451#000000000000
(1707835158.073690) COM6 0F1#1C0000400000
(1707835158.075705) COM6 0C1#40089CDE80011FE8
(1707835158.077805) COM6 0C5#0000000000000000
(1707835158.077805) COM6 0D1#00000000000000
(1707835158.077805) COM6 1C8#C0000000FFFD3FFD
(1707835158.077805) COM6 1E5#44FFAD500000027C
(1707835158.077805) COM6 185#03FB
(1707835158.077805) COM6 1C6#0000000000000000
(1707835158.077805) COM6 1C7#06A0396000003E
(1707835158.077805) COM6 1CE#00000000
(1707835158.077805) COM6 1E9#0000000600060000
(1707835158.077805) COM6 232#00000000000000
(1707835158.083791) COM6 0F1#280000400000
(1707835158.085725) COM6 0C1#50089CDE90011FE8
(1707835158.086813) COM6 0C5#1000000010000000
(1707835158.086813) COM6 0D1#40007FFF00FF00
(1707835158.086813) COM6 1C8#0000000000000000
(1707835158.086813) COM6 12A#0000605900000080
(1707835158.086813) COM6 1E5#44FFAD700000029C
(1707835158.086813) COM6 210#00000000
(1707835158.088806) COM6 214#000000000000
(1707835158.088806) COM6 2F9#43000000000000
(1707835158.088806) COM6 348#000000001B
(1707835158.088806) COM6 34A#000000001B
(1707835158.088806) COM6 362#00000000
(1707835158.088806) COM6 365#00000000
(1707835158.088806) COM6 370#000000000000
(1707835158.088806) COM6 135#04080D0002180000
(1707835158.090816) COM6 137#0000000030000000
(1707835158.094083) COM6 0F1#340000400000
(1707835158.095168) COM6 0C1#60089CDEA0011FE8
(1707835158.104096) COM6 0C5#2000000020000000
(1707835158.104096) COM6 0D1#8000BFFE00FE00
(1707835158.104096) COM6 1C8#40000000FFFF3FFF
(1707835158.104096) COM6 139#0000000000000000
(1707835158.104096) COM6 1E5#44FFAD100000023C
(1707835158.104096) COM6 185#03FC
(1707835158.104096) COM6 1C6#000000000043FFFF
(1707835158.104096) COM6 1C7#06A0795F00003E
(1707835158.104096) COM6 1CE#080007FF
(1707835158.104096) COM6 1E9#0000000600080000
(1707835158.104096) COM6 232#00000000000000
(1707835158.104096) COM6 160#803C96B503
(1707835158.104096) COM6 1E1#000004000210F0
(1707835158.104096) COM6 0F1#000000400000
(1707835158.105606) COM6 0C1#70089CDEB0011FE8
(1707835158.117620) COM6 0C5#3000000030000000
(1707835158.117620) COM6 0D1#C000FFFD00FD00
(1707835158.117620) COM6 1C8#80000000FFFE3FFE
(1707835158.117620) COM6 1E5#44FFAD300000025C
(1707835158.117620) COM6 1F1#AE0F173E18000072
(1707835158.117620) COM6 1F3#80BC00
(1707835158.117620) COM6 32A#0000000000000000
(1707835158.117620) COM6 0F1#1C0000400000
(1707835158.117620) COM6 0C1#40089CDE80011FE8
(1707835158.117620) COM6 0C5#0000000000000000
(1707835158.117620) COM6 0D1#00003FFC00FC00
(1707835158.117620) COM6 1C8#C0000000FFFD3FFD
(1707835158.117620) COM6 1E1#000004000314E0
(1707835158.117620) COM6 1E5#44FFAD500000027C
(1707835158.117620) COM6 185#03FC
(1707835158.117620) COM6 1C6#000000000083FFFE
(1707835158.117620) COM6 1C7#06A0B95E00003E
(1707835158.117620) COM6 1CE#100007FE
(1707835158.117620) COM6 1E9#0000000600080000
(1707835158.135811) COM6 232#00000000000000
(1707835158.135811) COM6 1F3#C0FC00
(1707835158.135811) COM6 3C9#0766000000000000
(1707835158.135811) COM6 0F1#280000400000
(1707835158.135811) COM6 0C1#50089CDE90011FE8
(1707835158.135811) COM6 0C5#1000000010000000
(1707835158.135811) COM6 0D1#40007FFB00FB00
(1707835158.135811) COM6 1C8#0000000000000000
(1707835158.135811) COM6 1E5#44FFAD700000029C
(1707835158.135811) COM6 3CB#2E81000001FB
(1707835158.135811) COM6 3E7#0068
(1707835158.135811) COM6 3F1#00FFFA0A06FF0A68
(1707835158.135811) COM6 0F1#340000400000
(1707835158.135811) COM6 0C1#60089CDEA0011FE8
(1707835158.148375) COM6 0C5#2000000020000000
(1707835158.148375) COM6 0D1#8000BFFA00FA00
(1707835158.148375) COM6 1C8#40000000FFFF3FFF
(1707835158.148375) COM6 1E5#44FFAD100000023C
(1707835158.148375) COM6 185#03FC
(1707835158.148375) COM6 1C6#0000000000C3FFFD
(1707835158.148375) COM6 1C7#06A0F95D00003E
(1707835158.148375) COM6 1CE#180007FD
(1707835158.148375) COM6 1E9#0000000600080000
(1707835158.148375) COM6 232#00000000000000
(1707835158.148375) COM6 210#020001FF
(1707835158.148375) COM6 214#020001FF0403
(1707835158.148375) COM6 2F9#4B000000000007
(1707835158.148375) COM6 348#000000001B
(1707835158.148375) COM6 34A#000000001B
(1707835158.148375) COM6 362#00000000
(1707835158.148375) COM6 365#00000000
(1707835158.148375) COM6 370#000000000000
(1707835158.148375) COM6 17D#2A2443FF2000
(1707835158.148375) COM6 182#000000
(1707835158.148375) COM6 234#00000000
(1707835158.148375) COM6 2F1#0000000000
(1707835158.148375) COM6 451#000000000000
(1707835158.148375) COM6 4C5#000000
(1707835158.148375) COM6 0F1#000000400000
(1707835158.148375) COM6 0C1#70089CDEB0011FE8
(1707835158.148375) COM6 0C5#3000000030000000
(1707835158.148375) COM6 0D1#C000FFF900F900
(1707835158.148375) COM6 1C8#80000000FFFE3FFE
(1707835158.148375) COM6 1E1#000004000018D0
(1707835158.148375) COM6 1E5#44FFAD300000025C
(1707835158.148375) COM6 1F3#003C00
(1707835158.151383) COM6 451#000000000000
(1707835158.153377) COM6 0F1#1C0000400000
(1707835158.155381) COM6 0C1#40089CDE80011FE8
(1707835158.165372) COM6 0C5#0000000000000000
(1707835158.165372) COM6 0D1#00000000000000
(1707835158.165372) COM6 1C8#C0000000FFFD3FFD
(1707835158.165372) COM6 1E5#44FFAD500000027C
(1707835158.165372) COM6 185#03FC
(1707835158.165372) COM6 1C6#0000000000000000
(1707835158.165372) COM6 1C7#06A0396000003E
(1707835158.165372) COM6 1CE#00000000
(1707835158.165372) COM6 1E9#0000000600080000
(1707835158.165372) COM6 232#00000000000000
(1707835158.165372) COM6 4D7#013A87DAA1
(1707835158.165372) COM6 0F1#280000400000
(1707835158.165372) COM6 0C1#50089CDE90011FE8
(1707835158.183450) COM6 0C5#1000000010000000
(1707835158.183450) COM6 0D1#40007FFF00FF00
(1707835158.183450) COM6 1C8#0000000000000000
(1707835158.183450) COM6 1E5#44FFAD700000029C
(1707835158.183450) COM6 451#000000000000
(1707835158.183450) COM6 0F1#340000400000
(1707835158.183450) COM6 0C1#60089CDEA0011FE8
(1707835158.183450) COM6 0C5#2000000020000000
(1707835158.183450) COM6 0D1#8000BFFE00FE00
(1707835158.183450) COM6 1C8#40000000FFFF3FFF
(1707835158.183450) COM6 1E1#00000400011CC0
(1707835158.183450) COM6 1E5#44FFAD100000023C
(1707835158.183450) COM6 185#03FB
(1707835158.183450) COM6 1C6#000000000043FFFF
(1707835158.183450) COM6 1C7#06A0795F00003E
(1707835158.183450) COM6 1CE#080007FF
(1707835158.183450) COM6 1E9#0000000600080000
(1707835158.183450) COM6 232#00000000000000
(1707835158.183450) COM6 1F3#407C00
(1707835158.183450) COM6 0F1#000000400000
(1707835158.185448) COM6 0C1#70089CDEB0011FE8
(1707835158.196453) COM6 0C5#3000000030000000
(1707835158.196453) COM6 0D1#C000FFFD00FD00
(1707835158.196453) COM6 1C8#80000000FFFE3FFE
(1707835158.196453) COM6 12A#0000605900000080
(1707835158.196453) COM6 1E5#44FFAD300000025C
(1707835158.196453) COM6 210#040001FE
(1707835158.196453) COM6 214#040001FE0802
(1707835158.196453) COM6 2F9#5300000000000A
(1707835158.196453) COM6 348#000000001B
(1707835158.196453) COM6 34A#000000001B
(1707835158.196453) COM6 362#00000000
(1707835158.196453) COM6 365#00000000
(1707835158.196453) COM6 370#000000000000
(1707835158.196453) COM6 135#04080D0002180000
(1707835158.196453) COM6 137#0000000030000000
(1707835158.196453) COM6 0F1#1C0000400000
(1707835158.196453) COM6 0C1#40089CDE80011FE8
(1707835158.196453) COM6 0C5#0000000000000000
(1707835158.196453) COM6 0D1#00003FFC00FC00
(1707835158.196453) COM6 1C8#C0000000FFFD3FFD
(1707835158.196453) COM6 139#0000000000000000
(1707835158.213480) COM6 1E5#44FFAD500000027C
(1707835158.213480) COM6 185#03FC
(1707835158.213480) COM6 1C6#000000000083FFFE
(1707835158.213480) COM6 1C7#06A0B95E00003E
(1707835158.213480) COM6 1CE#100007FE
(1707835158.213480) COM6 1E9#0000000600080000
(1707835158.213480) COM6 232#00000000000000
(1707835158.213480) COM6 160#803C96B503
(1707835158.213480) COM6 1F1#AE0F173E18000072
(1707835158.213480) COM6 0F1#280000400000
(1707835158.213480) COM6 0C1#50089CDE90011FE8
(1707835158.213480) COM6 0C5#1000000010000000
(1707835158.213480) COM6 0D1#40007FFB00FB00
(1707835158.213480) COM6 1C8#0000000000000000
(1707835158.213480) COM6 1E1#000004000210F0
(1707835158.213480) COM6 1E5#44FFAD700000029C
(1707835158.213480) COM6 1F3#80BC00
(1707835158.213480) COM6 32A#0000000000000000
(1707835158.213480) COM6 0F1#340000400000
(1707835158.215593) COM6 0C1#60089CDEA0011FE8
(1707835158.233867) COM6 0C5#2000000020000000
(1707835158.233867) COM6 0D1#8000BFFA00FA00
(1707835158.233867) COM6 1C8#40000000FFFF3FFF
(1707835158.233867) COM6 1E5#44FFAD100000023C
(1707835158.233867) COM6 185#03FB
(1707835158.233867) COM6 1C6#0000000000C3FFFD
(1707835158.233867) COM6 1C7#06A0F95D00003E
(1707835158.233867) COM6 1CE#180007FD
(1707835158.233867) COM6 1E9#0000000600060000
(1707835158.233867) COM6 232#00000000000000
(1707835158.233867) COM6 3C9#0766000000000000
(1707835158.233867) COM6 3CB#2E81000001FB
(1707835158.233867) COM6 3E7#0068
(1707835158.233867) COM6 0F1#000000400000
(1707835158.233867) COM6 0C1#70089CDEB0011FE8
(1707835158.233867) COM6 0C5#3000000030000000
(1707835158.233867) COM6 0D1#C000FFF900F900
(1707835158.233867) COM6 1C8#80000000FFFE3FFE
(1707835158.233867) COM6 1E5#44FFAD300000025C
(1707835158.233867) COM6 451#000000000000
(1707835158.233867) COM6 0F1#1C0000400000
(1707835158.245869) COM6 0C1#40089CDE80011FE8
(1707835158.245869) COM6 0C5#0000000000000000
(1707835158.245869) COM6 0D1#00000000000000
(1707835158.245869) COM6 1C8#C0000000FFFD3FFD
(1707835158.245869) COM6 1E1#000004000314E0
(1707835158.245869) COM6 1E5#44FFAD500000027C
(1707835158.245869) COM6 185#03FB
(1707835158.245869) COM6 1C6#0000000000000000
(1707835158.245869) COM6 1C7#06A0396000003E
(1707835158.245869) COM6 1CE#00000000
(1707835158.245869) COM6 1E9#0000000600080000
(1707835158.245869) COM6 232#00000000000000
(1707835158.245869) COM6 210#060001FD
(1707835158.245869) COM6 214#060001FD0C01
(1707835158.245869) COM6 2F9#5B00000000000D
(1707835158.245869) COM6 348#000000001B
(1707835158.245869) COM6 1F3#C0FC00
(1707835158.245869) COM6 34A#000000001B
(1707835158.245869) COM6 362#00000000
(1707835158.245869) COM6 365#00000000
(1707835158.245869) COM6 370#000000000000
(1707835158.245869) COM6 17D#2A2443FF2000
(1707835158.245869) COM6 182#000000
(1707835158.245869) COM6 234#00000000
(1707835158.245869) COM6 2F1#0000000000
(1707835158.245869) COM6 451#000000000000
(1707835158.245869) COM6 0F1#280000400000
(1707835158.245869) COM6 0C1#50089CDE90011FE8
(1707835158.245869) COM6 0C5#1000000010000000
(1707835158.263249) COM6 0D1#40007FFF00FF00
(1707835158.264262) COM6 1C8#0000000000000000
(1707835158.264262) COM6 1E5#44FFAD700000029C
(1707835158.264262) COM6 0F1#340000400000
(1707835158.264262) COM6 0C1#60089CDEA0011FE8
(1707835158.264262) COM6 0C5#2000000020000000
(1707835158.264262) COM6 0D1#8000BFFE00FE00
(1707835158.264262) COM6 1C8#40000000FFFF3FFF
(1707835158.264262) COM6 1E5#44FFAD100000023C
(1707835158.264262) COM6 185#03FC
(1707835158.264262) COM6 1C6#000000000043FFFF
(1707835158.264262) COM6 1C7#06A0795F00003E
(1707835158.264262) COM6 1CE#080007FF
(1707835158.264262) COM6 1E9#0000000600080000
(1707835158.264262) COM6 232#00000000000000
(1707835158.264262) COM6 451#000000000000
(1707835158.264262) COM6 0F1#000000400000
(1707835158.275854) COM6 0C1#70089CDEB0011FE8
(1707835158.275854) COM6 0C5#3000000030000000
(1707835158.275854) COM6 0D1#C000FFFD00FD00
(1707835158.275854) COM6 1C8#80000000FFFE3FFE
(1707835158.275854) COM6 1E1#000004000018D0
(1707835158.275854) COM6 1E5#44FFAD300000025C
(1707835158.275854) COM6 1F3#003C00
(1707835158.275854) COM6 451#000000000000
(1707835158.275854) COM6 0F1#1C0000400000
(1707835158.275854) COM6 0C1#40089CDE80011FE8
(1707835158.290955) COM6 0C5#0000000000000000
(1707835158.290955) COM6 0D1#00003FFC00FC00
(1707835158.290955) COM6 1C8#C0000000FFFD3FFD
(1707835158.290955) COM6 1E5#44FFAD500000027C
(1707835158.290955) COM6 185#03FC
(1707835158.290955) COM6 1C6#000000000083FFFE
(1707835158.290955) COM6 1C7#06A0B95E00003E
(1707835158.290955) COM6 1CE#100007FE
(1707835158.290955) COM6 1E9#0000000600060000
(1707835158.290955) COM6 232#00000000000000
(1707835158.290955) COM6 0F1#280000400000
(1707835158.290955) COM6 0C1#50089CDE90011FE8
(1707835158.290955) COM6 0C5#1000000010000000
(1707835158.290955) COM6 0D1#40007FFB00FB00
(1707835158.290955) COM6 1C8#0000000000000000
(1707835158.290955) COM6 12A#0000605900000080
(1707835158.290955) COM6 1E5#44FFAD700000029C
(1707835158.290955) COM6 210#00000000
(1707835158.290955) COM6 214#000000000000
(1707835158.290955) COM6 2F9#63000000000000
(1707835158.290955) COM6 348#000000001B
(1707835158.290955) COM6 34A#000000001B
(1707835158.290955) COM6 362#00000000
(1707835158.290955) COM6 365#00000000
(1707835158.290955) COM6 370#000000000000
(1707835158.290955) COM6 135#04080D0002180000
(1707835158.290955) COM6 137#0000000030000000
(1707835158.293949) COM6 0F1#340000400000
(1707835158.295852) COM6 0C1#60089CDEA0011FE8
(1707835158.295852) COM6 0C5#2000000020000000
(1707835158.295852) COM6 0D1#8000BFFA00FA00
(1707835158.308967) COM6 1C8#40000000FFFF3FFF
(1707835158.308967) COM6 139#0000000000000000
(1707835158.308967) COM6 1E5#44FFAD100000023C
(1707835158.308967) COM6 185#03FC
(1707835158.308967) COM6 1C6#0000000000C3FFFD
(1707835158.308967) COM6 1C7#06A0F95D00003E
(1707835158.308967) COM6 1CE#180007FD
(1707835158.308967) COM6 1E9#0000000600060000
(1707835158.308967) COM6 232#00000000000000
(1707835158.308967) COM6 160#803C96B503
(1707835158.308967) COM6 1E1#00000400011CC0
(1707835158.308967) COM6 0F1#000000400000
(1707835158.308967) COM6 0C1#70089CDEB0011FE8
(1707835158.308967) COM6 0C5#3000000030000000
(1707835158.308967) COM6 0D1#C000FFF900F900
(1707835158.308967) COM6 1C8#80000000FFFE3FFE
(1707835158.308967) COM6 1E5#44FFAD300000025C
(1707835158.308967) COM6 1F1#AE0F173E18000072
(1707835158.308967) COM6 1F3#407C00
(1707835158.310951) COM6 32A#0000000000000000
(1707835158.313959) COM6 0F1#1C0000400000
(1707835158.315856) COM6 0C1#40089CDE80011FE8
(1707835158.315856) COM6 0C5#0000000000000000
(1707835158.315856) COM6 0D1#00000000000000
(1707835158.324019) COM6 1C8#C0000000FFFD3FFD
(1707835158.324019) COM6 1E5#44FFAD500000027C
(1707835158.324019) COM6 185#03FC
(1707835158.324019) COM6 1C6#0000000000000000
(1707835158.324019) COM6 1C7#06A0396000003E
(1707835158.324019) COM6 1CE#00000000
(1707835158.324019) COM6 1E9#0000000600080000
(1707835158.324019) COM6 232#00000000000000
(1707835158.324019) COM6 3C9#0766000000000000
(1707835158.324019) COM6 3CB#2E8100000203
(1707835158.324019) COM6 3E7#0068
(1707835158.324019) COM6 0F1#280000400000
(1707835158.338167) COM6 0C1#50089CDE90011FE8
(1707835158.338167) COM6 0C5#1000000010000000
(1707835158.338167) COM6 0D1#40007FFF00FF00
(1707835158.338167) COM6 1C8#0000000000000000
(1707835158.338167) COM6 1E1#000004000210F0
(1707835158.338167) COM6 1E5#44FFAD700000029C
(1707835158.338167) COM6 1F3#80BC00
(1707835158.338167) COM6 451#000000000000
(1707835158.338167) COM6 0F1#340000400000
(1707835158.338167) COM6 0C1#60089CDEA0011FE8
(1707835158.338167) COM6 0C5#2000000020000000
(1707835158.338167) COM6 0D1#8000BFFE00FE00
(1707835158.338167) COM6 1C8#40000000FFFF3FFF
(1707835158.338167) COM6 1E5#44FFAD100000023C
(1707835158.338167) COM6 185#03FB
(1707835158.338167) COM6 1C6#000000000043FFFF
(1707835158.338167) COM6 1C7#06A0795F00003E
(1707835158.338167) COM6 1CE#080007FF
(1707835158.338167) COM6 1E9#0000000600080000
(1707835158.338167) COM6 232#00000000000000
(1707835158.338167) COM6 210#020001FF
(1707835158.338167) COM6 214#020001FF0403
(1707835158.338167) COM6 2F9#6B000000000007
(1707835158.354176) COM6 348#000000001B
(1707835158.354176) COM6 34A#000000001B
(1707835158.354176) COM6 362#00000000
(1707835158.354176) COM6 365#00000000
(1707835158.354176) COM6 370#000000000000
(1707835158.354176) COM6 17D#2A2443FF2000
(1707835158.354176) COM6 182#000000
(1707835158.354176) COM6 234#00000000
(1707835158.354176) COM6 2F1#0000000000
(1707835158.354176) COM6 3F1#00FFFA0A06FF0A68
(1707835158.354176) COM6 0F1#000000400000
(1707835158.354176) COM6 0C1#70089CDEB0011FE8
(1707835158.354176) COM6 0C5#3000000030000000
(1707835158.354176) COM6 0D1#C000FFFD00FD00
(1707835158.354176) COM6 1C8#80000000FFFE3FFE
(1707835158.354176) COM6 1E5#44FFAD300000025C
(1707835158.354176) COM6 451#000000000000
(1707835158.354176) COM6 0F1#1C0000400000
(1707835158.374162) COM6 0C1#40089CDE80011FE8
(1707835158.374162) COM6 0C5#0000000000000000
(1707835158.374162) COM6 0D1#00003FFC00FC00
(1707835158.374162) COM6 1C8#C0000000FFFD3FFD
(1707835158.374162) COM6 1E1#000004000314E0
(1707835158.374162) COM6 1E5#44FFAD500000027C
(1707835158.374162) COM6 185#03FB
(1707835158.374162) COM6 1C6#000000000083FFFE
(1707835158.374162) COM6 1C7#06A0B95E00003E
(1707835158.374162) COM6 1CE#100007FE
(1707835158.374162) COM6 1E9#0000000600080000
(1707835158.374162) COM6 232#00000000000000
(1707835158.374162) COM6 1F3#C0FC00
(1707835158.374162) COM6 0F1#280000400000
(1707835158.374162) COM6 0C1#50089CDE90011FE8
(1707835158.374162) COM6 0C5#1000000010000000
(1707835158.374162) COM6 0D1#40007FFB00FB00
(1707835158.374162) COM6 1C8#0000000000000000
(1707835158.374162) COM6 1E5#44FFAD700000029C
(1707835158.374162) COM6 451#000000000000
(1707835158.374162) COM6 0F1#340000400000
(1707835158.385164) COM6 0C1#60089CDEA0011FE8
(1707835158.385164) COM6 0C5#2000000020000000
(1707835158.385164) COM6 0D1#8000BFFA00FA00
(1707835158.385164) COM6 1C8#40000000FFFF3FFF
(1707835158.385164) COM6 1E5#44FFAD100000023C
(1707835158.385164) COM6 185#03FB
(1707835158.385164) COM6 1C6#0000000000C3FFFD
(1707835158.385164) COM6 1C7#06A0F95D00003E
(1707835158.385164) COM6 1CE#180007FD
(1707835158.385164) COM6 1E9#0000000600060000
(1707835158.385164) COM6 232#00000000000000
(1707835158.385164) COM6 0F1#000000400000
(1707835158.385164) COM6 0C1#70089CDEB0011FE8
(1707835158.401596) COM6 0C5#3000000030000000
(1707835158.401596) COM6 0D1#C000FFF900F900
(1707835158.401596) COM6 1C8#80000000FFFE3FFE
(1707835158.401596) COM6 1E5#44FFAD300000025C
(1707835158.401596) COM6 12A#0000605900000080
(1707835158.401596) COM6 210#040001FE
(1707835158.401596) COM6 214#040001FE0802
(1707835158.401596) COM6 2F9#7300000000000A
(1707835158.401596) COM6 348#000000001B
(1707835158.401596) COM6 34A#000000001B
(1707835158.401596) COM6 362#00000000
(1707835158.401596) COM6 365#00000000
(1707835158.401596) COM6 370#000000000000
(1707835158.401596) COM6 135#04080D0002180000
(1707835158.401596) COM6 137#0000000030000000
(1707835158.401596) COM6 0F1#1C0000400000
(1707835158.401596) COM6 0C1#40089CDE80011FE8
(1707835158.401596) COM6 0C5#0000000000000000
(1707835158.401596) COM6 0D1#00000000000000
(1707835158.401596) COM6 1C8#C0000000FFFD3FFD
(1707835158.401596) COM6 139#0000000000000000
(1707835158.401596) COM6 1E5#44FFAD500000027C
(1707835158.401596) COM6 185#03FB
(1707835158.401596) COM6 1C6#0000000000000000
(1707835158.401596) COM6 1C7#06A0396000003E
(1707835158.401596) COM6 1CE#00000000
(1707835158.401596) COM6 1E9#0000000600060000
(1707835158.401596) COM6 232#00000000000000
(1707835158.401596) COM6 160#803C96B503
(1707835158.401596) COM6 1E1#000004000018D0
(1707835158.403643) COM6 0F1#280000400000
(1707835158.405616) COM6 0C1#50089CDE90011FE8
(1707835158.416389) COM6 0C5#1000000010000000
(1707835158.416389) COM6 0D1#40007FFF00FF00
(1707835158.416389) COM6 1C8#0000000000000000
(1707835158.416389) COM6 1E5#44FFAD700000029C
(1707835158.416389) COM6 1F1#AE0F173E18000072
(1707835158.416389) COM6 1F3#003C00
(1707835158.416389) COM6 32A#0000000000000000
(1707835158.416389) COM6 0F1#340000400000
(1707835158.416389) COM6 0C1#60089CDEA0011FE8
(1707835158.416389) COM6 0C5#2000000020000000
(1707835158.416389) COM6 0D1#8000BFFE00FE00
(1707835158.416389) COM6 1C8#40000000FFFF3FFF
(1707835158.434062) COM6 1E1#00000400011CC0
(1707835158.434062) COM6 1E5#44FFAD100000023C
(1707835158.434062) COM6 185#03FB
(1707835158.434062) COM6 1C6#000000000043FFFF
(1707835158.434062) COM6 1C7#06A0795F00003E
(1707835158.434062) COM6 1CE#080007FF
(1707835158.434062) COM6 1E9#0000000600080000
(1707835158.434062) COM6 232#00000000000000
(1707835158.434062) COM6 1F3#407C00
(1707835158.434062) COM6 3C9#0766000000000000
(1707835158.434062) COM6 0F1#000000400000
(1707835158.434062) COM6 0C1#70089CDEB0011FE8
(1707835158.434062) COM6 0C5#3000000030000000
(1707835158.434062) COM6 0D1#C000FFFD00FD00
(1707835158.434062) COM6 1C8#80000000FFFE3FFE
(1707835158.434062) COM6 1E5#44FFAD300000025C
(1707835158.434062) COM6 3CB#2E8100000203
(1707835158.434062) COM6 3E7#0068
(1707835158.434062) COM6 451#000000000000
(1707835158.434062) COM6 0F1#1C0000400000
(1707835158.448876) COM6 0C1#40089CDE80011FE8
(1707835158.448876) COM6 0C5#0000000000000000
(1707835158.448876) COM6 0D1#00003FFC00FC00
(1707835158.448876) COM6 1C8#C0000000FFFD3FFD
(1707835158.448876) COM6 1E5#44FFAD500000027C
(1707835158.448876) COM6 185#03FC
(1707835158.448876) COM6 1C6#000000000083FFFE
(1707835158.448876) COM6 1C7#06A0B95E00003E
(1707835158.448876) COM6 1CE#100007FE
(1707835158.448876) COM6 1E9#0000000600080000
(1707835158.448876) COM6 232#00000000000000
(1707835158.448876) COM6 210#060001FD
(1707835158.448876) COM6 214#060001FD0C01
(1707835158.448876) COM6 2F9#7B00000000000D
(1707835158.448876) COM6 348#000000001B
(1707835158.448876) COM6 34A#000000001B
(1707835158.448876) COM6 362#00000000
(1707835158.448876) COM6 365#00000000
(1707835158.448876) COM6 370#000000000000
(1707835158.448876) COM6 17D#2A2443FF2000
(1707835158.448876) COM6 182#000000
(1707835158.448876) COM6 234#00000000
(1707835158.448876) COM6 2F1#0000000000
(1707835158.448876) COM6 0F1#280000400000
(1707835158.448876) COM6 0C1#50089CDE90011FE8
(1707835158.448876) COM6 0C5#1000000010000000
(1707835158.448876) COM6 0D1#40007FFB00FB00
(1707835158.448876) COM6 1C8#0000000000000000
(1707835158.448876) COM6 1E1#000004000210F0
(1707835158.448876) COM6 1E5#44FFAD700000029C
(1707835158.448876) COM6 1F3#80BC00
(1707835158.451726) COM6 451#000000000000
(1707835158.453961) COM6 0F1#340000400000
(1707835158.463547) COM6 0C1#60089CDEA0011FE8
(1707835158.463547) COM6 0C5#2000000020000000
(1707835158.463547) COM6 0D1#8000BFFA00FA00
(1707835158.463547) COM6 1C8#40000000FFFF3FFF
(1707835158.463547) COM6 1E5#44FFAD100000023C
(1707835158.463547) COM6 185#03FC
(1707835158.463547) COM6 1C6#0000000000C3FFFD
(1707835158.463547) COM6 1C7#06A0F95D00003E
(1707835158.463547) COM6 1CE#180007FD
(1707835158.463547) COM6 1E9#0000000600080000
(1707835158.463547) COM6 232#00000000000000
(1707835158.463547) COM6 0F1#000000400000
(1707835158.466409) COM6 0C1#70089CDEB0011FE8
(1707835158.466409) COM6 0C5#3000000030000000
(1707835158.466409) COM6 0D1#C000FFF900F900
(1707835158.466409) COM6 1C8#80000000FFFE3FFE
(1707835158.466409) COM6 1E5#44FFAD300000025C
(1707835158.484013) COM6 451#000000000000
(1707835158.484013) COM6 0F1#1C0000400000
(1707835158.484013) COM6 0C1#40089CDE80011FE8
(1707835158.484013) COM6 0C5#0000000000000000
(1707835158.484013) COM6 0D1#00000000000000
(1707835158.484013) COM6 1C8#C0000000FFFD3FFD
(1707835158.484013) COM6 1E1#000004000314E0
(1707835158.484013) COM6 1E5#44FFAD500000027C
(1707835158.484013) COM6 185#03FC
(1707835158.484013) COM6 1C6#0000000000000000
(1707835158.484013) COM6 1C7#06A0396000003E
(1707835158.484013) COM6 1CE#00000000
(1707835158.484013) COM6 1E9#0000000600080000
(1707835158.484013) COM6 232#00000000000000
(1707835158.484013) COM6 1F3#C0FC00
(1707835158.484013) COM6 0F1#280000400000
(1707835158.486694) COM6 0C1#50089CDE90011FE8
(1707835158.486694) COM6 0C5#1000000010000000
(1707835158.486694) COM6 0D1#40007FFF00FF00
(1707835158.486694) COM6 1C8#0000000000000000
(1707835158.495448) COM6 12A#0000605900000080
(1707835158.495448) COM6 1E5#44FFAD700000029C
(1707835158.495448) COM6 210#00000000
(1707835158.495448) COM6 214#000000000000
(1707835158.495448) COM6 2F9#80000000000000
(1707835158.495448) COM6 348#000000001B
(1707835158.495448) COM6 34A#000000001B
(1707835158.495448) COM6 362#00000000
(1707835158.495448) COM6 365#00000000
(1707835158.495448) COM6 370#000000000000
(1707835158.495448) COM6 135#04080D0002180000
(1707835158.495448) COM6 137#0000000030000000
(1707835158.495448) COM6 0F1#340000400000
(1707835158.495448) COM6 0C1#60089CDEA0011FE8
(1707835158.495448) COM6 0C5#2000000020000000
(1707835158.511439) COM6 0D1#8000BFFE00FE00
(1707835158.511439) COM6 1C8#40000000FFFF3FFF
(1707835158.511439) COM6 139#0000000000000000
(1707835158.511439) COM6 1E5#44FFAD100000023C
(1707835158.511439) COM6 185#03FD
(1707835158.511439) COM6 1C6#000000000043FFFF
(1707835158.511439) COM6 1C7#06A0795F00003E
(1707835158.511439) COM6 1CE#080007FF
(1707835158.511439) COM6 1E9#0000000600060000
(1707835158.511439) COM6 232#00000000000000
(1707835158.511439) COM6 160#803C96B503
(1707835158.511439) COM6 1F1#AE0F173E18000072
(1707835158.511439) COM6 0F1#000000400000
(1707835158.511439) COM6 0C1#70089CDEB0011FE8
(1707835158.511439) COM6 0C5#3000000030000000
(1707835158.511439) COM6 0D1#C000FFFD00FD00
(1707835158.511439) COM6 1C8#80000000FFFE3FFE
(1707835158.511439) COM6 1E1#000004000018D0
(1707835158.511439) COM6 1E5#44FFAD300000025C
(1707835158.511439) COM6 1F3#003C00
(1707835158.511439) COM6 32A#0000000000000000
(1707835158.513438) COM6 0F1#1C0000400000
(1707835158.515438) COM6 0C1#40089CDE80011FE8
(1707835158.525438) COM6 0C5#0000000000000000
(1707835158.525438) COM6 0D1#00003FFC00FC00
(1707835158.525438) COM6 1C8#C0000000FFFD3FFD
(1707835158.525438) COM6 1E5#44FFAD500000027C
(1707835158.525438) COM6 185#03FD
(1707835158.525438) COM6 1C6#000000000083FFFE
(1707835158.525438) COM6 1C7#06A0B95E00003E
(1707835158.525438) COM6 1CE#100007FE
(1707835158.525438) COM6 1E9#0000000600080000
(1707835158.525438) COM6 232#00000000000000
(1707835158.525438) COM6 3C9#0766000000000000
(1707835158.525438) COM6 3CB#2E81000001FB
(1707835158.525438) COM6 3E7#0068
(1707835158.525438) COM6 0F1#280000400000
(1707835158.525438) COM6 0C1#50089CDE90011FE8
(1707835158.525438) COM6 0C5#1000000010000000
(1707835158.545519) COM6 0D1#40007FFB00FB00
(1707835158.545519) COM6 1C8#0000000000000000
(1707835158.545519) COM6 1E5#44FFAD700000029C
(1707835158.545519) COM6 451#000000000000
(1707835158.545519) COM6 0F1#340000400000
(1707835158.545519) COM6 0C1#60089CDEA0011FE8
(1707835158.545519) COM6 0C5#2000000020000000
(1707835158.545519) COM6 0D1#8000BFFA00FA00
(1707835158.545519) COM6 1C8#40000000FFFF3FFF
(1707835158.545519) COM6 1E1#00000400011CC0
(1707835158.545519) COM6 1E5#44FFAD100000023C
(1707835158.545519) COM6 185#03FE
(1707835158.545519) COM6 1C6#0000000000C3FFFD
(1707835158.545519) COM6 1C7#06A0F95D00003E
(1707835158.545519) COM6 1CE#180007FD
(1707835158.545519) COM6 1E9#0000000600080000
(1707835158.545519) COM6 232#00000000000000
(1707835158.545519) COM6 210#020001FF
(1707835158.545519) COM6 214#020001FF0403
(1707835158.545519) COM6 2F9#8B000000000007
(1707835158.545519) COM6 348#000000001B
(1707835158.545519) COM6 1F3#407C00
(1707835158.545519) COM6 34A#000000001B
(1707835158.545519) COM6 362#00000000
(1707835158.545519) COM6 365#00000000
(1707835158.545519) COM6 370#000000000000
(1707835158.545519) COM6 17D#2A2443FF2000
(1707835158.545519) COM6 182#000000
(1707835158.545519) COM6 234#00000000
(1707835158.545519) COM6 2F1#0000000000
(1707835158.545519) COM6 451#000000000000
(1707835158.545519) COM6 0C1#70089CDEB0011FE8
(1707835158.556597) COM6 0C5#3000000030000000
(1707835158.556597) COM6 0D1#C000FFF900F900
(1707835158.556597) COM6 1C8#80000000FFFE3FFE
(1707835158.556597) COM6 0F1#000000400000
(1707835158.556597) COM6 1E5#44FFAD300000025C
(1707835158.556597) COM6 451#000000000000
(1707835158.556597) COM6 0F1#1C0000400000
(1707835158.556597) COM6 0C1#40089CDE80011FE8
(1707835158.556597) COM6 0C5#0000000000000000
(1707835158.556597) COM6 0D1#00000000000000
(1707835158.556597) COM6 1C8#C0000000FFFD3FFD
(1707835158.556597) COM6 1E5#44FFAD500000027C
(1707835158.556597) COM6 185#03FC
(1707835158.574179) COM6 1C6#0000000000000000
(1707835158.574179) COM6 1C7#06A0396000003E
(1707835158.574179) COM6 1CE#00000000
(1707835158.574179) COM6 1E9#0000000600080000
(1707835158.574179) COM6 232#00000000000000
(1707835158.574179) COM6 0F1#280000400000
(1707835158.574179) COM6 0C1#50089CDE90011FE8
(1707835158.574179) COM6 0C5#1000000010000000
(1707835158.574179) COM6 0D1#40007FFF00FF00
(1707835158.574179) COM6 1C8#0000000000000000
(1707835158.574179) COM6 1E1#000004000210F0
(1707835158.574179) COM6 1E5#44FFAD700000029C
(1707835158.574179) COM6 1F3#80BC00
(1707835158.574179) COM6 451#000000000000
(1707835158.574179) COM6 0F1#340000400000
(1707835158.587541) COM6 0C1#60089CDEA0011FE8
(1707835158.587541) COM6 0C5#2000000020000000
(1707835158.587541) COM6 0D1#8000BFFE00FE00
(1707835158.587541) COM6 1C8#40000000FFFF3FFF
(1707835158.587541) COM6 1E5#44FFAD100000023C
(1707835158.587541) COM6 185#03FC
(1707835158.587541) COM6 1C6#000000000043FFFF
(1707835158.588502) COM6 1C7#06A0795F00003E
(1707835158.588502) COM6 1CE#080007FF
(1707835158.588502) COM6 1E9#0000000600080000
(1707835158.588502) COM6 232#00000000000000
(1707835158.588502) COM6 0F1#000000400000
(1707835158.588502) COM6 0C1#70089CDEB0011FE8
(1707835158.588502) COM6 0C5#3000000030000000
(1707835158.588502) COM6 0D1#C000FFFD00FD00
(1707835158.588502) COM6 1C8#80000000FFFE3FFE
(1707835158.588502) COM6 12A#0000605900000080
(1707835158.588502) COM6 1E5#44FFAD300000025C
(1707835158.588502) COM6 210#040001FE
(1707835158.588502) COM6 214#040001FE0802
(1707835158.588502) COM6 2F9#9300000000000A
(1707835158.588502) COM6 348#000000001B
(1707835158.588502) COM6 34A#000000001B
(1707835158.588502) COM6 362#00000000
(1707835158.588502) COM6 365#00000000
(1707835158.588502) COM6 370#000000000000
(1707835158.603502) COM6 135#04080D0002180000
(1707835158.603502) COM6 137#0000000030000000
(1707835158.603502) COM6 0F1#1C0000400000
(1707835158.603502) COM6 0C1#40089CDE80011FE8
(1707835158.603502) COM6 0C5#0000000000000000
(1707835158.603502) COM6 0D1#00003FFC00FC00
(1707835158.603502) COM6 1C8#C0000000FFFD3FFD
(1707835158.603502) COM6 139#0000000000000000
(1707835158.603502) COM6 1E5#44FFAD500000027C
(1707835158.603502) COM6 185#03FB
(1707835158.603502) COM6 1C6#000000000083FFFE
(1707835158.603502) COM6 1C7#06A0B95E00003E
(1707835158.603502) COM6 1CE#100007FE
(1707835158.603502) COM6 1E9#0000000600060000
(1707835158.603502) COM6 232#00000000000000
(1707835158.603502) COM6 140#000202
(1707835158.603502) COM6 160#803C96B503
(1707835158.603502) COM6 0F1#280000400000
(1707835158.605710) COM6 0C1#50089CDE90011FE8
(1707835158.605710) COM6 0C5#1000000010000000
(1707835158.605710) COM6 0D1#40007FFB00FB00
(1707835158.619046) COM6 1C8#0000000000000000
(1707835158.619046) COM6 1E1#000004000314E0
(1707835158.619046) COM6 1E5#44FFAD700000029C
(1707835158.619046) COM6 1F1#AE0F173E18000072
(1707835158.619046) COM6 1F3#C0FC00
(1707835158.619046) COM6 0F1#340000400000
(1707835158.619046) COM6 0C1#60089CDEA0011FE8
(1707835158.619046) COM6 0C5#2000000020000000
(1707835158.619046) COM6 0D1#8000BFFA00FA00
(1707835158.619046) COM6 1C8#40000000FFFF3FFF
(1707835158.619046) COM6 1E5#44FFAD100000023C
(1707835158.619046) COM6 185#03FB
(1707835158.619046) COM6 1C6#0000000000C3FFFD
(1707835158.619046) COM6 1C7#06A0F95D00003E
(1707835158.619046) COM6 1CE#180007FD
(1707835158.619046) COM6 1E9#0000000600060000
(1707835158.619046) COM6 232#00000000000000
(1707835158.619046) COM6 32A#0000000000000000
(1707835158.619046) COM6 3C9#0766000000000000
(1707835158.621900) COM6 3CB#2E81000001FB
(1707835158.624055) COM6 0F1#000000400000
(1707835158.633927) COM6 0C1#70089CDEB0011FE8
(1707835158.633927) COM6 0C5#3000000030000000
(1707835158.633927) COM6 0D1#C000FFF900F900
(1707835158.633927) COM6 1C8#80000000FFFE3FFE
(1707835158.633927) COM6 1E1#000004000018D0
(1707835158.633927) COM6 1E5#44FFAD300000025C
(1707835158.633927) COM6 1F3#003C00
(1707835158.633927) COM6 3E7#0068
(1707835158.633927) COM6 0F1#1C0000400000
(1707835158.651753) COM6 0C1#40089CDE80011FE8
(1707835158.651753) COM6 0C5#0000000000000000
(1707835158.651753) COM6 0D1#00000000000000
(1707835158.651753) COM6 1C8#C0000000FFFD3FFD
(1707835158.651753) COM6 1E5#44FFAD500000027C
(1707835158.651753) COM6 185#03FB
(1707835158.651753) COM6 1C6#0000000000000000
(1707835158.651753) COM6 1C7#06A0396000003E
(1707835158.651753) COM6 1CE#00000000
(1707835158.651753) COM6 1E9#0000000600060000
(1707835158.651753) COM6 232#00000000000000
(1707835158.651753) COM6 210#060001FD
(1707835158.651753) COM6 214#060001FD0C01
(1707835158.651753) COM6 2F9#9B00000000000D
(1707835158.651753) COM6 348#000000001B
(1707835158.651753) COM6 34A#000000001B
(1707835158.651753) COM6 362#00000000
(1707835158.651753) COM6 365#00000000
(1707835158.651753) COM6 370#000000000000
(1707835158.651753) COM6 17D#2A2443FF2000
(1707835158.651753) COM6 182#000000
(1707835158.651753) COM6 234#00000000
(1707835158.651753) COM6 2F1#0000000000
(1707835158.651753) COM6 3F1#00FFFA0A06FF0A68
(1707835158.651753) COM6 451#000000000000
(1707835158.651753) COM6 0F1#280000400000
(1707835158.651753) COM6 0C1#50089CDE90011FE8
(1707835158.651753) COM6 0C5#1000000010000000
(1707835158.651753) COM6 0D1#40007FFF00FF00
(1707835158.651753) COM6 1C8#0000000000000000
(1707835158.651753) COM6 1E5#44FFAD700000029C
(1707835158.651753) COM6 4C5#000000
(1707835158.651753) COM6 4D7#013A87DAA1
(1707835158.651753) COM6 4E1#4B34303238383139
(1707835158.653856) COM6 0F1#340000400000
(1707835158.665743) COM6 0C1#60089CDEA0011FE8
(1707835158.665743) COM6 0C5#2000000020000000
(1707835158.665743) COM6 0D1#8000BFFE00FE00
(1707835158.665743) COM6 1C8#40000000FFFF3FFF
(1707835158.665743) COM6 1E1#00000400011CC0
(1707835158.665743) COM6 1E5#44FFAD100000023C
(1707835158.665743) COM6 185#03FB
(1707835158.665743) COM6 1C6#000000000043FFFF
(1707835158.665743) COM6 1C7#06A0795F00003E
(1707835158.665743) COM6 1CE#080007FF
(1707835158.665743) COM6 1E9#0000000600080000
(1707835158.665743) COM6 232#00000000000000
(1707835158.665743) COM6 1F3#407C00
(1707835158.665743) COM6 451#000000000000
(1707835158.665743) COM6 0F1#000000400000
(1707835158.665743) COM6 0C1#70089CDEB0011FE8
(1707835158.683741) COM6 0C5#3000000030000000
(1707835158.683741) COM6 0D1#C000FFFD00FD00
(1707835158.683741) COM6 1C8#80000000FFFE3FFE
(1707835158.683741) COM6 1E5#44FFAD300000025C
(1707835158.683741) COM6 4E9#E14001093E25
(1707835158.683741) COM6 514#3056305845503638
(1707835158.683741) COM6 52A#242437363736
(1707835158.683741) COM6 0F1#1C0000400000
(1707835158.683741) COM6 0C1#40089CDE80011FE8
(1707835158.683741) COM6 0C5#0000000000000000
(1707835158.683741) COM6 0D1#00003FFC00FC00
(1707835158.683741) COM6 1C8#C0000000FFFD3FFD
(1707835158.683741) COM6 1E5#44FFAD500000027C
(1707835158.683741) COM6 185#03FB
(1707835158.683741) COM6 1C6#000000000083FFFE
(1707835158.683741) COM6 1C7#06A0B95E00003E
(1707835158.683741) COM6 1CE#100007FE
(1707835158.683741) COM6 1E9#0000000600080000
(1707835158.683741) COM6 232#00000000000000
(1707835158.683741) COM6 451#000000000000
(1707835158.683741) COM6 530#00000000
(1707835158.683741) COM6 0F1#280000400000
(1707835158.697424) COM6 0C1#50089CDE90011FE8
(1707835158.697424) COM6 0C5#1000000010000000
(1707835158.697424) COM6 0D1#40007FFB00FB00
(1707835158.697424) COM6 1C8#0000000000000000
(1707835158.697424) COM6 12A#0000605900000080
(1707835158.697424) COM6 1E5#44FFAD700000029C
(1707835158.697424) COM6 210#00000000
(1707835158.697424) COM6 214#000000000000
(1707835158.697424) COM6 2F9#A0000000000000
(1707835158.697424) COM6 348#000000001B
(1707835158.697424) COM6 34A#000000001B
(1707835158.697424) COM6 362#00000000
(1707835158.697424) COM6 365#00000000
(1707835158.697424) COM6 370#000000000000
(1707835158.697424) COM6 135#04080D0002180000
(1707835158.697424) COM6 137#0000000030000000
(1707835158.697424) COM6 0F1#340000400000
(1707835158.697424) COM6 0C1#60089CDEA0011FE8
(1707835158.697424) COM6 0C5#2000000020000000
(1707835158.697424) COM6 0D1#8000BFFA00FA00
(1707835158.697424) COM6 1C8#40000000FFFF3FFF
(1707835158.697424) COM6 139#0000000000000000
(1707835158.697424) COM6 1E5#44FFAD100000023C
(1707835158.697424) COM6 185#03FB
(1707835158.697424) COM6 1C6#0000000000C3FFFD
(1707835158.713975) COM6 1C7#06A0F95D00003E
(1707835158.713975) COM6 1CE#180007FD
(1707835158.713975) COM6 1E9#0000000600080000
(1707835158.713975) COM6 232#00000000000000
(1707835158.713975) COM6 160#803C96B503
(1707835158.713975) COM6 1E1#000004000210F0
(1707835158.713975) COM6 0F1#000000400000
(1707835158.713975) COM6 0C1#70089CDEB0011FE8
(1707835158.713975) COM6 0C5#3000000030000000
(1707835158.713975) COM6 0D1#C000FFF900F900
(1707835158.713975) COM6 1C8#80000000FFFE3FFE
(1707835158.713975) COM6 1E5#44FFAD300000025C
(1707835158.713975) COM6 1F1#AE0F173E18000072
(1707835158.713975) COM6 1F3#80BC00
(1707835158.713975) COM6 32A#0000000000000000
(1707835158.713975) COM6 0F1#1C0000400000
(1707835158.728942) COM6 0C1#40089CDE80011FE8
(1707835158.728942) COM6 0C5#0000000000000000
(1707835158.728942) COM6 0D1#00000000000000
(1707835158.728942) COM6 1C8#C0000000FFFD3FFD
(1707835158.728942) COM6 1E5#44FFAD500000027C
(1707835158.728942) COM6 185#03FB
(1707835158.728942) COM6 1C6#0000000000000000
(1707835158.728942) COM6 1C7#06A0396000003E
(1707835158.728942) COM6 1CE#00000000
(1707835158.728942) COM6 1E1#000004000314E0
(1707835158.728942) COM6 1E9#0000000600080000
(1707835158.728942) COM6 232#00000000000000
(1707835158.728942) COM6 1F3#C0FC00
(1707835158.728942) COM6 3C9#0766000000000000
(1707835158.728942) COM6 0F1#280000400000
(1707835158.728942) COM6 0C1#50089CDE90011FE8
(1707835158.728942) COM6 0C5#1000000010000000
(1707835158.728942) COM6 0D1#40007FFF00FF00
(1707835158.728942) COM6 1C8#0000000000000000
(1707835158.728942) COM6 1E5#44FFAD700000029C
(1707835158.728942) COM6 3CB#2E82000001FB
(1707835158.728942) COM6 3E7#0068
(1707835158.730943) COM6 451#000000000000
(1707835158.733942) COM6 0F1#340000400000
(1707835158.744941) COM6 0C1#60089CDEA0011FE8
(1707835158.744941) COM6 0C5#2000000020000000
(1707835158.744941) COM6 0D1#8000BFFE00FE00
(1707835158.744941) COM6 1C8#40000000FFFF3FFF
(1707835158.744941) COM6 1E5#44FFAD100000023C
(1707835158.744941) COM6 185#03FC
(1707835158.744941) COM6 1C6#000000000043FFFF
(1707835158.744941) COM6 1C7#06A0795F00003E
(1707835158.744941) COM6 1CE#080007FF
(1707835158.744941) COM6 1E9#0000000600080000
(1707835158.744941) COM6 232#00000000000000
(1707835158.744941) COM6 210#020001FF
(1707835158.744941) COM6 214#020001FF0403
(1707835158.744941) COM6 2F9#A8000000000007
(1707835158.744941) COM6 348#000000001B
(1707835158.744941) COM6 34A#000000001B
(1707835158.744941) COM6 362#00000000
(1707835158.744941) COM6 365#00000000
(1707835158.744941) COM6 370#000000000000
(1707835158.744941) COM6 17D#2A2443FF2000
(1707835158.744941) COM6 182#000000
(1707835158.744941) COM6 234#00000000
(1707835158.744941) COM6 2F1#0000000000
(1707835158.744941) COM6 500#303003B9
(1707835158.744941) COM6 773#00280000000000
(1707835158.744941) COM6 780#00310000000000
(1707835158.744941) COM6 0F1#000000400000
(1707835158.744941) COM6 0C1#70089CDEB0011FE8
(1707835158.763346) COM6 0C5#3000000030000000
(1707835158.763346) COM6 0D1#C000FFFD00FD00
(1707835158.763346) COM6 1C8#80000000FFFE3FFE
(1707835158.763346) COM6 1E1#000004000018D0
(1707835158.763346) COM6 1E5#44FFAD300000025C
(1707835158.763346) COM6 1F3#003C00
(1707835158.763346) COM6 451#000000000000
(1707835158.763346) COM6 0F1#1C0000400000
(1707835158.763346) COM6 0C1#40089CDE80011FE8
(1707835158.763346) COM6 0C5#0000000000000000
(1707835158.763346) COM6 0D1#00003FFC00FC00
(1707835158.763346) COM6 1C8#C0000000FFFD3FFD
(1707835158.763346) COM6 1E5#44FFAD500000027C
(1707835158.763346) COM6 185#03FC
(1707835158.763346) COM6 1C6#000000000083FFFE
(1707835158.763346) COM6 1C7#06A0B95E00003E
(1707835158.763346) COM6 1CE#100007FE
(1707835158.763346) COM6 1E9#0000000600080000
(1707835158.763346) COM6 232#00000000000000
(1707835158.763346) COM6 0F1#280000400000
(1707835158.765343) COM6 0C1#50089CDE90011FE8
(1707835158.775242) COM6 0C5#1000000010000000
(1707835158.775242) COM6 0D1#40007FFB00FB00
(1707835158.775242) COM6 1C8#0000000000000000
(1707835158.775242) COM6 1E5#44FFAD700000029C
(1707835158.775242) COM6 451#000000000000
(1707835158.775242) COM6 0F1#340000400000
(1707835158.775242) COM6 0C1#60089CDEA0011FE8
(1707835158.791242) COM6 0C5#2000000020000000
(1707835158.791242) COM6 0D1#8000BFFA00FA00
(1707835158.791242) COM6 1C8#40000000FFFF3FFF
(1707835158.791242) COM6 1E1#00000400011CC0
(1707835158.791242) COM6 1E5#44FFAD100000023C
(1707835158.791242) COM6 185#03FC
(1707835158.791242) COM6 1C6#0000000000C3FFFD
(1707835158.791242) COM6 1C7#06A0F95D00003E
(1707835158.791242) COM6 1CE#180007FD
(1707835158.791242) COM6 1E9#0000000600060000
(1707835158.791242) COM6 232#00000000000000
(1707835158.791242) COM6 1F3#407C00
(1707835158.791242) COM6 0F1#000000400000
(1707835158.791242) COM6 0C1#70089CDEB0011FE8
(1707835158.791242) COM6 0C5#3000000030000000
(1707835158.791242) COM6 0D1#C000FFF900F900
(1707835158.791242) COM6 1C8#80000000FFFE3FFE
(1707835158.791242) COM6 12A#0000605900000080
(1707835158.791242) COM6 1E5#44FFAD300000025C
(1707835158.791242) COM6 210#040001FE
(1707835158.791242) COM6 214#040001FE0802
(1707835158.791242) COM6 2F9#B000000000000A
(1707835158.791242) COM6 348#000000001B
(1707835158.791242) COM6 34A#000000001B
(1707835158.791242) COM6 362#00000000
(1707835158.791242) COM6 365#00000000
(1707835158.791242) COM6 370#000000000000
(1707835158.791242) COM6 135#04080D0002180000
(1707835158.791242) COM6 137#0000000030000000
(1707835158.793242) COM6 0F1#1C0000400000
(1707835158.795242) COM6 0C1#40089CDE80011FE8
(1707835158.808246) COM6 0C5#0000000000000000
(1707835158.808246) COM6 0D1#00000000000000
(1707835158.808246) COM6 1C8#C0000000FFFD3FFD
(1707835158.808246) COM6 139#0000000000000000
(1707835158.808246) COM6 1E5#44FFAD500000027C
(1707835158.808246) COM6 185#03FC
(1707835158.808246) COM6 1C6#0000000000000000
(1707835158.808246) COM6 1C7#06A0396000003E
(1707835158.808246) COM6 1CE#00000000
(1707835158.808246) COM6 1E9#0000000600060000
(1707835158.808246) COM6 232#00000000000000
(1707835158.808246) COM6 160#803C96B503
(1707835158.808246) COM6 1F1#AE0F173E18000072
(1707835158.808246) COM6 0F1#280000400000
(1707835158.808246) COM6 0C1#50089CDE90011FE8
(1707835158.808246) COM6 0C5#1000000010000000
(1707835158.808246) COM6 0D1#40007FFF00FF00
(1707835158.808246) COM6 1C8#0000000000000000
(1707835158.808246) COM6 1E1#000004000210F0
(1707835158.808246) COM6 1E5#44FFAD700000029C
(1707835158.808246) COM6 1F3#80BC00
(1707835158.811338) COM6 32A#0000000000000000
(1707835158.813344) COM6 0F1#340000400000
(1707835158.815345) COM6 0C1#60089CDEA0011FE8
(1707835158.823871) COM6 0C5#2000000020000000
(1707835158.823871) COM6 0D1#8000BFFE00FE00
(1707835158.823871) COM6 1C8#40000000FFFF3FFF
(1707835158.823871) COM6 1E5#44FFAD100000023C
(1707835158.823871) COM6 185#03FE
(1707835158.823871) COM6 1C6#000000000043FFFF
(1707835158.823871) COM6 1C7#06A0795F00003E
(1707835158.823871) COM6 1CE#080007FF
(1707835158.823871) COM6 1E9#0000000600080000
(1707835158.823871) COM6 232#00000000000000
(1707835158.823871) COM6 3C9#0766000000000000
(1707835158.823871) COM6 3CB#2E82000001FB
(1707835158.823871) COM6 3E7#0068
(1707835158.823871) COM6 0F1#000000400000
(1707835158.838231) COM6 0C1#70089CDEB0011FE8
(1707835158.838231) COM6 0C5#3000000030000000
(1707835158.838231) COM6 0D1#C000FFFD00FD00
(1707835158.838231) COM6 1C8#80000000FFFE3FFE
(1707835158.838231) COM6 1E5#44FFAD300000025C
(1707835158.838231) COM6 451#000000000000
(1707835158.838231) COM6 0F1#1C0000400000
(1707835158.838231) COM6 0C1#40089CDE80011FE8
(1707835158.838231) COM6 0C5#0000000000000000
(1707835158.838231) COM6 0D1#00003FFC00FC00
(1707835158.838231) COM6 1C8#C0000000FFFD3FFD
(1707835158.838231) COM6 1E1#000004000314E0
(1707835158.838231) COM6 1E5#44FFAD500000027C
(1707835158.838231) COM6 185#03FD
(1707835158.838231) COM6 1C6#000000000083FFFE
(1707835158.838231) COM6 1C7#06A0B95E00003E
(1707835158.838231) COM6 1CE#100007FE
(1707835158.838231) COM6 1E9#0000000600080000
(1707835158.838231) COM6 232#00000000000000
(1707835158.838231) COM6 210#060001FD
(1707835158.838231) COM6 214#060001FD0C01
(1707835158.838231) COM6 2F9#B800000000000D
(1707835158.853367) COM6 348#000000001B
(1707835158.853367) COM6 1F3#C0FC00
(1707835158.853367) COM6 34A#000000001B
(1707835158.853367) COM6 362#00000000
(1707835158.853367) COM6 365#00000000
(1707835158.853367) COM6 370#000000000000
(1707835158.853367) COM6 17D#2A2443FF2000
(1707835158.853367) COM6 182#000000
(1707835158.853367) COM6 234#00000000
(1707835158.853367) COM6 2F1#0000000000
(1707835158.853367) COM6 3F1#00FFFA0A06FF0A68
(1707835158.853367) COM6 0F1#280000400000
(1707835158.853367) COM6 0C1#50089CDE90011FE8
(1707835158.853367) COM6 0C5#1000000010000000
(1707835158.853367) COM6 0D1#40007FFB00FB00
(1707835158.853367) COM6 1C8#0000000000000000
(1707835158.853367) COM6 1E5#44FFAD700000029C
(1707835158.853367) COM6 451#000000000000
(1707835158.853367) COM6 0F1#340000400000
(1707835158.855368) COM6 0C1#60089CDEA0011FE8
(1707835158.855368) COM6 0C5#2000000020000000
(1707835158.855368) COM6 0D1#8000BFFA00FA00
(1707835158.870954) COM6 1C8#40000000FFFF3FFF
(1707835158.870954) COM6 1E5#44FFAD100000023C
(1707835158.870954) COM6 185#03FB
(1707835158.870954) COM6 1C6#0000000000C3FFFD
(1707835158.870954) COM6 1C7#06A0F95D00003E
(1707835158.870954) COM6 1CE#180007FD
(1707835158.870954) COM6 1E9#0000000600080000
(1707835158.870954) COM6 232#00000000000000
(1707835158.870954) COM6 451#000000000000
(1707835158.870954) COM6 0F1#000000400000
(1707835158.870954) COM6 0C1#70089CDEB0011FE8
(1707835158.870954) COM6 0C5#3000000030000000
(1707835158.870954) COM6 0D1#C000FFF900F900
(1707835158.870954) COM6 1C8#80000000FFFE3FFE
(1707835158.870954) COM6 1E1#000004000018D0
(1707835158.870954) COM6 1E5#44FFAD300000025C
(1707835158.870954) COM6 1F3#003C00
(1707835158.870954) COM6 451#000000000000
(1707835158.873960) COM6 0F1#1C0000400000
(1707835158.885989) COM6 0C1#40089CDE80011FE8
(1707835158.885989) COM6 0C5#0000000000000000
(1707835158.885989) COM6 0D1#00000000000000
(1707835158.885989) COM6 1C8#C0000000FFFD3FFD
(1707835158.885989) COM6 1E5#44FFAD500000027C
(1707835158.885989) COM6 185#03FB
(1707835158.885989) COM6 1C6#0000000000000000
(1707835158.885989) COM6 1C7#06A0396000003E
(1707835158.885989) COM6 1CE#00000000
(1707835158.885989) COM6 1E9#0000000600080000
(1707835158.885989) COM6 232#00000000000000
(1707835158.885989) COM6 0F1#280000400000
(1707835158.885989) COM6 0C1#50089CDE90011FE8
(1707835158.885989) COM6 0C5#1000000010000000
(1707835158.885989) COM6 0D1#40007FFF00FF00
(1707835158.900981) COM6 1C8#0000000000000000
(1707835158.900981) COM6 12A#0000605900000080
(1707835158.900981) COM6 1E5#44FFAD700000029C
(1707835158.900981) COM6 210#00000000
(1707835158.900981) COM6 214#000000000000
(1707835158.900981) COM6 2F9#C0000000000000
(1707835158.900981) COM6 348#000000001B
(1707835158.900981) COM6 34A#000000001B
(1707835158.900981) COM6 362#00000000
(1707835158.900981) COM6 365#00000000
(1707835158.900981) COM6 370#000000000000
(1707835158.900981) COM6 148#00
(1707835158.900981) COM6 135#04080D0002180000
(1707835158.900981) COM6 137#0000000030000000
(1707835158.900981) COM6 0F1#340000400000
(1707835158.900981) COM6 0C1#60089CDEA0011FE8
(1707835158.900981) COM6 0C5#2000000020000000
(1707835158.900981) COM6 0D1#8000BFFE00FE00
(1707835158.900981) COM6 139#0000000000000000
(1707835158.900981) COM6 1C8#40000000FFFF3FFF
(1707835158.900981) COM6 1E5#44FFAD100000023C
(1707835158.900981) COM6 185#03FB
(1707835158.900981) COM6 1C6#000000000043FFFF
(1707835158.900981) COM6 1C7#06A0795F00003E
(1707835158.900981) COM6 1CE#080007FF
(1707835158.900981) COM6 1E9#0000000600080000
(1707835158.900981) COM6 232#00000000000000
(1707835158.900981) COM6 160#803C96B503
(1707835158.900981) COM6 1E1#00000400011CC0
(1707835158.903981) COM6 0F1#000000400000
(1707835158.915981) COM6 0C1#70089CDEB0011FE8
(1707835158.915981) COM6 0C5#3000000030000000
(1707835158.915981) COM6 0D1#C000FFFD00FD00
(1707835158.915981) COM6 1C8#80000000FFFE3FFE
(1707835158.915981) COM6 1E5#44FFAD300000025C
(1707835158.915981) COM6 1F1#AE0F173E18000072
(1707835158.915981) COM6 1F3#407C00
(1707835158.915981) COM6 32A#0000000000000000
(1707835158.915981) COM6 0F1#1C0000400000
(1707835158.915981) COM6 0C1#40089CDE80011FE8
(1707835158.915981) COM6 0C5#0000000000000000
(1707835158.915981) COM6 0D1#00003FFC00FC00
(1707835158.915981) COM6 1C8#C0000000FFFD3FFD
(1707835158.933987) COM6 1E5#44FFAD500000027C
(1707835158.933987) COM6 185#03FB
(1707835158.933987) COM6 1C6#000000000083FFFE
(1707835158.933987) COM6 1C7#06A0B95E00003E
(1707835158.933987) COM6 1CE#100007FE
(1707835158.933987) COM6 1E9#0000000600060000
(1707835158.933987) COM6 232#00000000000000
(1707835158.933987) COM6 3C9#0766000000000000
(1707835158.933987) COM6 3CB#2E82000001FB
(1707835158.933987) COM6 3E7#0068
(1707835158.933987) COM6 0F1#280000400000
(1707835158.933987) COM6 0C1#50089CDE90011FE8
(1707835158.933987) COM6 0C5#1000000010000000
(1707835158.933987) COM6 0D1#40007FFB00FB00
(1707835158.933987) COM6 1C8#0000000000000000
(1707835158.933987) COM6 1E1#000004000210F0
(1707835158.933987) COM6 1E5#44FFAD700000029C
(1707835158.933987) COM6 1F3#80BC00
(1707835158.933987) COM6 451#000000000000
(1707835158.933987) COM6 0F1#340000400000
(1707835158.953817) COM6 0C1#60089CDEA0011FE8
(1707835158.953817) COM6 0C5#2000000020000000
(1707835158.953817) COM6 0D1#8000BFFA00FA00
(1707835158.953817) COM6 1C8#40000000FFFF3FFF
(1707835158.953817) COM6 1E5#44FFAD100000023C
(1707835158.953817) COM6 185#03FB
(1707835158.953817) COM6 1C6#0000000000C3FFFD
(1707835158.953817) COM6 1C7#06A0F95D00003E
(1707835158.953817) COM6 1CE#180007FD
(1707835158.953817) COM6 1E9#0000000600080000
(1707835158.953817) COM6 232#00000000000000
(1707835158.953817) COM6 210#020001FF
(1707835158.953817) COM6 214#020001FF0403
(1707835158.953817) COM6 2F9#C8000000000007
(1707835158.953817) COM6 348#000000001B
(1707835158.953817) COM6 34A#000000001B
(1707835158.953817) COM6 362#00000000
(1707835158.953817) COM6 365#00000000
(1707835158.953817) COM6 370#000000000000
(1707835158.953817) COM6 17D#2A2443FF2000
(1707835158.953817) COM6 182#000000
(1707835158.953817) COM6 234#00000000
(1707835158.953817) COM6 2F1#0000000000
(1707835158.953817) COM6 0F1#000000400000
(1707835158.953817) COM6 0C1#70089CDEB0011FE8
(1707835158.953817) COM6 0C5#3000000030000000
(1707835158.953817) COM6 0D1#C000FFF900F900
(1707835158.953817) COM6 1C8#80000000FFFE3FFE
(1707835158.953817) COM6 1E5#44FFAD300000025C
(1707835158.953817) COM6 451#000000000000
(1707835158.953817) COM6 0F1#1C0000400000
(1707835158.955267) COM6 0C1#40089CDE80011FE8
(1707835158.963769) COM6 0C5#0000000000000000
(1707835158.963769) COM6 0D1#00000000000000
(1707835158.963769) COM6 1C8#C0000000FFFD3FFD
(1707835158.963769) COM6 1E1#000004000314E0
(1707835158.963769) COM6 1E5#44FFAD500000027C
(1707835158.963769) COM6 185#03FB
(1707835158.963769) COM6 1C6#0000000000000000
(1707835158.963769) COM6 1C7#06A0396000003E
(1707835158.963769) COM6 1CE#00000000
(1707835158.963769) COM6 1E9#0000000600080000
(1707835158.963769) COM6 232#00000000000000
(1707835158.963769) COM6 1F3#C0FC00
(1707835158.963769) COM6 0F1#280000400000
(1707835158.983892) COM6 0C1#50089CDE90011FE8
(1707835158.983892) COM6 0C5#1000000010000000
(1707835158.983892) COM6 0D1#40007FFF00FF00
(1707835158.983892) COM6 1C8#0000000000000000
(1707835158.983892) COM6 1E5#44FFAD700000029C
(1707835158.983892) COM6 451#000000000000
(1707835158.983892) COM6 0F1#340000400000
(1707835158.983892) COM6 0C1#60089CDEA0011FE8
(1707835158.983892) COM6 0C5#2000000020000000
(1707835158.983892) COM6 0D1#8000BFFE00FE00
(1707835158.983892) COM6 1C8#40000000FFFF3FFF
(1707835158.983892) COM6 1E5#44FFAD100000023C
(1707835158.983892) COM6 185#03FB
(1707835158.983892) COM6 1C6#000000000043FFFF
(1707835158.983892) COM6 1C7#06A0795F00003E
(1707835158.983892) COM6 1CE#080007FF
(1707835158.983892) COM6 1E9#0000000600080000
(1707835158.983892) COM6 232#00000000000000
(1707835158.983892) COM6 0F1#000000400000
(1707835158.986778) COM6 0C1#70089CDEB0011FE8
(1707835158.986778) COM6 0C5#3000000030000000
(1707835158.986778) COM6 0D1#C000FFFD00FD00
(1707835158.986778) COM6 1C8#80000000FFFE3FFE
(1707835158.986778) COM6 12A#0000605900000080
(1707835158.986778) COM6 1E5#44FFAD300000025C
(1707835158.995926) COM6 210#040001FE
(1707835158.995926) COM6 214#040001FE0802
(1707835158.995926) COM6 2F9#D000000000010A
(1707835158.995926) COM6 348#000000001B
(1707835158.995926) COM6 34A#000000001B
(1707835158.995926) COM6 362#00000000
(1707835158.995926) COM6 365#00000000
(1707835158.995926) COM6 370#000000000000
(1707835158.995926) COM6 135#04080D0002180000
(1707835158.995926) COM6 137#0000000030000000
(1707835158.995926) COM6 0F1#1C0000400000
(1707835158.995926) COM6 0C1#40089CDE80011FE8
(1707835158.995926) COM6 0C5#0000000000000000
(1707835158.995926) COM6 0D1#00003FFC00FC00
(1707835159.011648) COM6 1C8#C0000000FFFD3FFD
(1707835159.011648) COM6 139#0000000000000000
(1707835159.011648) COM6 1E5#44FFAD500000027C
(1707835159.011648) COM6 185#03FC
(1707835159.011648) COM6 1C6#000000000083FFFE
(1707835159.011648) COM6 1C7#06A0B95E00003E
(1707835159.011648) COM6 1CE#100007FE
(1707835159.011648) COM6 1E9#0000000600060000
(1707835159.011648) COM6 232#00000000000000
(1707835159.011648) COM6 160#803C96B503
(1707835159.011648) COM6 1E1#000004000018D0
(1707835159.011648) COM6 0F1#280000400000
(1707835159.011648) COM6 0C1#50089CDE90011FE8
(1707835159.011648) COM6 0C5#1000000010000000
(1707835159.011648) COM6 0D1#40007FFB00FB00
(1707835159.011648) COM6 1C8#0000000000000000
(1707835159.011648) COM6 1E5#44FFAD700000029C
(1707835159.011648) COM6 1F1#AE0F173E18000072
(1707835159.011648) COM6 1F3#003C00
(1707835159.011648) COM6 32A#0000000000000000
(1707835159.014084) COM6 0F1#340000400000
(1707835159.026200) COM6 0C1#60089CDEA0011FE8
(1707835159.026200) COM6 0C5#2000000020000000
(1707835159.026200) COM6 0D1#8000BFFA00FA00
(1707835159.026200) COM6 1C8#40000000FFFF3FFF
(1707835159.026200) COM6 1E1#00000400011CC0
(1707835159.026200) COM6 1E5#44FFAD100000023C
(1707835159.026200) COM6 185#03FC
(1707835159.026200) COM6 1C6#0000000000C3FFFD
(1707835159.026200) COM6 1C7#06A0F95D00003E
(1707835159.026200) COM6 1CE#180007FD
(1707835159.026200) COM6 1E9#0000000600060000
(1707835159.026200) COM6 232#00000000000000
(1707835159.026200) COM6 1F3#407C00
(1707835159.026200) COM6 3C9#0766000000000000
(1707835159.026200) COM6 0F1#000000400000
(1707835159.026200) COM6 0C1#70089CDEB0011FE8
(1707835159.026200) COM6 0C5#3000000030000000
(1707835159.026200) COM6 0D1#C000FFF900F900
(1707835159.026200) COM6 1C8#80000000FFFE3FFE
(1707835159.026200) COM6 1E5#44FFAD300000025C
(1707835159.043200) COM6 3CB#2E82000001FB
(1707835159.043200) COM6 3E7#0068
(1707835159.043200) COM6 451#000000000000
(1707835159.043200) COM6 0F1#1C0000400000
(1707835159.043200) COM6 0C1#40089CDE80011FE8
(1707835159.043200) COM6 0C5#0000000000000000
(1707835159.043200) COM6 0D1#00000000000000
(1707835159.043200) COM6 1C8#C0000000FFFD3FFD
(1707835159.043200) COM6 1E5#44FFAD500000027C
(1707835159.043200) COM6 185#03FC
(1707835159.043200) COM6 1C6#0000000000000000
(1707835159.043200) COM6 1C7#06A0396000003E
(1707835159.043200) COM6 1CE#00000000
(1707835159.043200) COM6 1E9#0000000600060000
(1707835159.043200) COM6 232#00000000000000
(1707835159.043200) COM6 210#060001FD
(1707835159.043200) COM6 214#060001FD0C01
(1707835159.043200) COM6 2F9#D800000000000D
(1707835159.043200) COM6 348#000000001B
(1707835159.043200) COM6 34A#000000001B
(1707835159.043200) COM6 362#00000000
(1707835159.043200) COM6 365#00000000
(1707835159.043200) COM6 370#000000000000
(1707835159.043200) COM6 17D#2A2443FF2000
(1707835159.043200) COM6 182#000000
(1707835159.043200) COM6 234#00000000
(1707835159.043200) COM6 2F1#0000000000
(1707835159.043200) COM6 0F1#280000400000
(1707835159.045200) COM6 0C1#50089CDE90011FE8
(1707835159.063194) COM6 0C5#1000000010000000
(1707835159.063194) COM6 0D1#40007FFF00FF00
(1707835159.063194) COM6 1C8#0000000000000000
(1707835159.063194) COM6 1E1#000004000210F0
(1707835159.063194) COM6 1E5#44FFAD700000029C
(1707835159.063194) COM6 1F3#80BC00
(1707835159.063194) COM6 451#000000000000
(1707835159.063194) COM6 0F1#340000400000
(1707835159.063194) COM6 0C1#60089CDEA0011FE8
(1707835159.063194) COM6 0C5#2000000020000000
(1707835159.063194) COM6 0D1#8000BFFE00FE00
(1707835159.063194) COM6 1C8#40000000FFFF3FFF
(1707835159.063194) COM6 1E5#44FFAD100000023C
(1707835159.063194) COM6 185#03FC
(1707835159.063194) COM6 1C6#000000000043FFFF
(1707835159.063194) COM6 1C7#06A0795F00003E
(1707835159.063194) COM6 1CE#080007FF
(1707835159.063194) COM6 1E9#0000000600080000
(1707835159.063194) COM6 232#00000000000000
(1707835159.063194) COM6 0F1#000000400000
(1707835159.065191) COM6 0C1#70089CDEB0011FE8
(1707835159.074984) COM6 0C5#3000000030000000
(1707835159.074984) COM6 0D1#C000FFFD00FD00
(1707835159.074984) COM6 1C8#80000000FFFE3FFE
(1707835159.074984) COM6 1E5#44FFAD300000025C
(1707835159.074984) COM6 451#000000000000
(1707835159.074984) COM6 0F1#1C0000400000
(1707835159.074984) COM6 0C1#40089CDE80011FE8
(1707835159.090975) COM6 0C5#0000000000000000
(1707835159.090975) COM6 0D1#00003FFC00FC00
(1707835159.090975) COM6 1C8#C0000000FFFD3FFD
(1707835159.090975) COM6 1E1#000004000314E0
(1707835159.090975) COM6 1E5#44FFAD500000027C
(1707835159.090975) COM6 185#03FC
(1707835159.090975) COM6 1C6#000000000083FFFE
(1707835159.090975) COM6 1C7#06A0B95E00003E
(1707835159.090975) COM6 1CE#100007FE
(1707835159.090975) COM6 1E9#0000000600080000
(1707835159.090975) COM6 232#00000000000000
(1707835159.090975) COM6 1F3#C0FC00
(1707835159.090975) COM6 0F1#280000400000
(1707835159.090975) COM6 0C1#50089CDE90011FE8
(1707835159.090975) COM6 0C5#1000000010000000
(1707835159.090975) COM6 0D1#40007FFB00FB00
(1707835159.090975) COM6 1C8#0000000000000000
(1707835159.090975) COM6 12A#0000605900000080
(1707835159.090975) COM6 1E5#44FFAD700000029C
(1707835159.090975) COM6 210#00000000
(1707835159.090975) COM6 214#000000000000
(1707835159.090975) COM6 2F9#E0000000000100
(1707835159.090975) COM6 348#000000001B
(1707835159.090975) COM6 34A#000000001B
(1707835159.090975) COM6 362#00000000
(1707835159.090975) COM6 365#00000000
(1707835159.090975) COM6 370#000000000000
(1707835159.090975) COM6 135#04080D0002180000
(1707835159.090975) COM6 137#0000000030000000
(1707835159.093967) COM6 0F1#340000400000
(1707835159.105087) COM6 0C1#60089CDEA0011FE8
(1707835159.105087) COM6 0C5#2000000020000000
(1707835159.105087) COM6 0D1#8000BFFA00FA00
(1707835159.105087) COM6 1C8#40000000FFFF3FFF
(1707835159.105087) COM6 139#0000000000000000
(1707835159.105087) COM6 1E5#44FFAD100000023C
(1707835159.105087) COM6 185#03FC
(1707835159.105087) COM6 1C6#0000000000C3FFFD
(1707835159.105087) COM6 1C7#06A0F95D00003E
(1707835159.105087) COM6 1CE#180007FD
(1707835159.105087) COM6 1E9#0000000600060000
(1707835159.105087) COM6 232#00000000000000
(1707835159.105087) COM6 160#803C96B503
(1707835159.105087) COM6 1F1#AE0F173E18000072
(1707835159.105087) COM6 0F1#000000400000
(1707835159.105087) COM6 0C1#70089CDEB0011FE8
(1707835159.121339) COM6 0C5#3000000030000000
(1707835159.121339) COM6 0D1#C000FFF900F900
(1707835159.121339) COM6 1C8#80000000FFFE3FFE
(1707835159.121339) COM6 1E1#000004000018D0
(1707835159.121339) COM6 1E5#44FFAD300000025C
(1707835159.121339) COM6 1F3#003C00
(1707835159.121339) COM6 32A#0000000000000000
(1707835159.121339) COM6 0F1#1C0000400000
(1707835159.121339) COM6 0C1#40089CDE80011FE8
(1707835159.121339) COM6 0C5#0000000000000000
(1707835159.121339) COM6 0D1#00000000000000
(1707835159.121339) COM6 1C8#C0000000FFFD3FFD
(1707835159.121339) COM6 1E5#44FFAD500000027C
(1707835159.121339) COM6 185#03FC
(1707835159.121339) COM6 1C6#0000000000000000
(1707835159.121339) COM6 1C7#06A0396000003E
(1707835159.121339) COM6 1CE#00000000
(1707835159.121339) COM6 1E9#0000000600060000
(1707835159.121339) COM6 232#00000000000000
(1707835159.121339) COM6 3C9#0766000000000000
(1707835159.121339) COM6 3CB#2E82000001FB
(1707835159.121339) COM6 3E7#0068
(1707835159.123451) COM6 0F1#280000400000
(1707835159.126352) COM6 0C1#50089CDE90011FE8
(1707835159.126352) COM6 0C5#1000000010000000
(1707835159.126352) COM6 0D1#40007FFF00FF00
(1707835159.136511) COM6 1C8#0000000000000000
(1707835159.136511) COM6 1E5#44FFAD700000029C
(1707835159.136511) COM6 3F1#00FFFA0A06FF0A68
(1707835159.136511) COM6 451#000000000000
(1707835159.136511) COM6 4C5#000000
(1707835159.136511) COM6 0F1#340000400000
(1707835159.136511) COM6 0C1#60089CDEA0011FE8
(1707835159.136511) COM6 0C5#2000000020000000
(1707835159.136511) COM6 0D1#8000BFFE00FE00
(1707835159.136511) COM6 1C8#40000000FFFF3FFF
(1707835159.136511) COM6 1E1#00000400011CC0
(1707835159.136511) COM6 1E5#44FFAD100000023C
(1707835159.136511) COM6 185#03FC
(1707835159.153683) COM6 1C6#000000000043FFFF
(1707835159.153683) COM6 1C7#06A0795F00003E
(1707835159.153683) COM6 1CE#080007FF
(1707835159.153683) COM6 1E9#0000000600080000
(1707835159.153683) COM6 232#00000000000000
(1707835159.153683) COM6 210#020001FF
(1707835159.153683) COM6 214#020001FF0403
(1707835159.153683) COM6 2F9#E8000000000007
(1707835159.153683) COM6 348#000000001B
(1707835159.153683) COM6 1F3#407C00
(1707835159.153683) COM6 34A#000000001B
(1707835159.153683) COM6 362#00000000
(1707835159.153683) COM6 365#00000000
(1707835159.153683) COM6 370#000000000000
(1707835159.153683) COM6 17D#2A2443FF2000
(1707835159.153683) COM6 182#000000
(1707835159.153683) COM6 234#00000000
(1707835159.153683) COM6 2F1#0000000000
(1707835159.153683) COM6 451#000000000000
(1707835159.153683) COM6 4D7#013A87DAA1
(1707835159.153683) COM6 0C1#70089CDEB0011FE8
(1707835159.153683) COM6 0C5#3000000030000000
(1707835159.153683) COM6 0D1#C000FFFD00FD00
(1707835159.153683) COM6 1C8#80000000FFFE3FFE
(1707835159.153683) COM6 0F1#000000400000
(1707835159.153683) COM6 1E5#44FFAD300000025C
(1707835159.153683) COM6 451#000000000000
(1707835159.153683) COM6 0F1#1C0000400000
(1707835159.168682) COM6 0C1#40089CDE80011FE8
(1707835159.168682) COM6 0C5#0000000000000000
(1707835159.168682) COM6 0D1#00003FFC00FC00
(1707835159.168682) COM6 1C8#C0000000FFFD3FFD
(1707835159.168682) COM6 1E5#44FFAD500000027C
(1707835159.168682) COM6 185#03FC
(1707835159.168682) COM6 1C6#000000000083FFFE
(1707835159.168682) COM6 1C7#06A0B95E00003E
(1707835159.168682) COM6 1CE#100007FE
(1707835159.168682) COM6 1E9#0000000600080000
(1707835159.168682) COM6 232#00000000000000
(1707835159.168682) COM6 0F1#280000400000
(1707835159.168682) COM6 0C1#50089CDE90011FE8
(1707835159.168682) COM6 0C5#1000000010000000
(1707835159.168682) COM6 0D1#40007FFB00FB00
(1707835159.168682) COM6 1C8#0000000000000000
(1707835159.168682) COM6 1E1#000004000210F0
(1707835159.168682) COM6 1E5#44FFAD700000029C
(1707835159.168682) COM6 1F3#80BC00
(1707835159.170682) COM6 451#000000000000
(1707835159.173682) COM6 0F1#340000400000
(1707835159.185692) COM6 0C1#60089CDEA0011FE8
(1707835159.185692) COM6 0C5#2000000020000000
(1707835159.185692) COM6 0D1#8000BFFA00FA00
(1707835159.185692) COM6 1C8#40000000FFFF3FFF
(1707835159.185692) COM6 1E5#44FFAD100000023C
(1707835159.185692) COM6 185#03FC
(1707835159.185692) COM6 1C6#0000000000C3FFFD
(1707835159.185692) COM6 1C7#06A0F95D00003E
(1707835159.185692) COM6 1CE#180007FD
(1707835159.185692) COM6 1E9#0000000600080000
(1707835159.185692) COM6 232#00000000000000
(1707835159.185692) COM6 0F1#000000400000
(1707835159.185692) COM6 0C1#70089CDEB0011FE8
(1707835159.200775) COM6 0C5#3000000030000000
(1707835159.200775) COM6 0D1#C000FFF900F900
(1707835159.200775) COM6 1C8#80000000FFFE3FFE
(1707835159.200775) COM6 12A#0000605900000080
(1707835159.200775) COM6 1E5#44FFAD300000025C
(1707835159.200775) COM6 210#040001FE
(1707835159.200775) COM6 214#040001FE0802
(1707835159.200775) COM6 2F9#F000000000010A
(1707835159.200775) COM6 348#000000001B
(1707835159.200775) COM6 34A#000000001B
(1707835159.200775) COM6 362#00000000
(1707835159.200775) COM6 365#00000000
(1707835159.200775) COM6 370#000000000000
(1707835159.200775) COM6 135#04080D0002180000
(1707835159.200775) COM6 137#0000000030000000
(1707835159.200775) COM6 0F1#1C0000400000
(1707835159.200775) COM6 0C1#40089CDE80011FE8
(1707835159.200775) COM6 0C5#0000000000000000
(1707835159.200775) COM6 0D1#00000000000000
(1707835159.200775) COM6 1C8#C0000000FFFD3FFD
(1707835159.200775) COM6 139#0000000000000000
(1707835159.200775) COM6 1E5#44FFAD500000027C
(1707835159.200775) COM6 185#03FB
(1707835159.200775) COM6 1C6#0000000000000000
(1707835159.200775) COM6 1C7#06A0396000003E
(1707835159.200775) COM6 1CE#00000000
(1707835159.200775) COM6 1E9#0000000600080000
(1707835159.200775) COM6 232#00000000000000
(1707835159.200775) COM6 160#803C96B503
(1707835159.200775) COM6 1E1#000004000314E0
(1707835159.203946) COM6 0F1#280000400000
(1707835159.205792) COM6 0C1#50089CDE90011FE8
(1707835159.205792) COM6 0C5#1000000010000000
(1707835159.205792) COM6 0D1#40007FFF00FF00
(1707835159.215043) COM6 1C8#0000000000000000
(1707835159.215043) COM6 1E5#44FFAD700000029C
(1707835159.215043) COM6 1F1#AE0F173E18000072
(1707835159.215043) COM6 1F3#C0FC00
(1707835159.215043) COM6 32A#0000000000000000
(1707835159.215043) COM6 0F1#340000400000
(1707835159.215043) COM6 0C1#60089CDEA0011FE8
(1707835159.231429) COM6 0C5#2000000020000000
(1707835159.231429) COM6 0D1#8000BFFE00FE00
(1707835159.231429) COM6 1C8#40000000FFFF3FFF
(1707835159.231429) COM6 1E5#44FFAD100000023C
(1707835159.231429) COM6 185#03FB
(1707835159.231429) COM6 1C6#000000000043FFFF
(1707835159.231429) COM6 1C7#06A0795F00003E
(1707835159.231429) COM6 1CE#080007FF
(1707835159.231429) COM6 1E9#0000000600080000
(1707835159.231429) COM6 232#00000000000000
(1707835159.231429) COM6 3C9#0766000000000000
(1707835159.231429) COM6 3CB#2E82000001FB
(1707835159.231429) COM6 3E7#0068
(1707835159.231429) COM6 0F1#000000400000
(1707835159.231429) COM6 0C1#70089CDEB0011FE8
(1707835159.231429) COM6 0C5#3000000030000000
(1707835159.231429) COM6 0D1#C000FFFD00FD00
(1707835159.231429) COM6 1C8#80000000FFFE3FFE
(1707835159.231429) COM6 1E1#000004000018D0
(1707835159.231429) COM6 1E5#44FFAD300000025C
(1707835159.231429) COM6 1F3#003C00
(1707835159.231429) COM6 451#000000000000
(1707835159.233478) COM6 0F1#1C0000400000
(1707835159.235475) COM6 0C1#40089CDE80011FE8
(1707835159.253861) COM6 0C5#0000000000000000
(1707835159.253861) COM6 0D1#00003FFC00FC00
(1707835159.253861) COM6 1C8#C0000000FFFD3FFD
(1707835159.253861) COM6 1E5#44FFAD500000027C
(1707835159.253861) COM6 185#03FB
(1707835159.253861) COM6 1C6#000000000083FFFE
(1707835159.253861) COM6 1C7#06A0B95E00003E
(1707835159.253861) COM6 1CE#100007FE
(1707835159.253861) COM6 1E9#0000000600080000
(1707835159.253861) COM6 232#00000000000000
(1707835159.253861) COM6 210#060001FD
(1707835159.253861) COM6 214#060001FD0C01
(1707835159.253861) COM6 2F9#F800000000000D
(1707835159.253861) COM6 348#000000001B
(1707835159.253861) COM6 34A#000000001B
(1707835159.253861) COM6 362#00000000
(1707835159.253861) COM6 365#00000000
(1707835159.253861) COM6 370#000000000000
(1707835159.253861) COM6 17D#2A2443FF2000
(1707835159.253861) COM6 182#000000
(1707835159.253861) COM6 234#00000000
(1707835159.253861) COM6 2F1#0000000000
(1707835159.253861) COM6 0F1#280000400000
(1707835159.253861) COM6 0C1#50089CDE90011FE8
(1707835159.253861) COM6 0C5#1000000010000000
(1707835159.253861) COM6 0D1#40007FFB00FB00
(1707835159.253861) COM6 1C8#0000000000000000
(1707835159.253861) COM6 1E5#44FFAD700000029C
(1707835159.253861) COM6 451#000000000000
(1707835159.253861) COM6 0F1#340000400000
(1707835159.256759) COM6 0C1#60089CDEA0011FE8
(1707835159.256759) COM6 0C5#2000000020000000
(1707835159.256759) COM6 0D1#8000BFFA00FA00
(1707835159.256759) COM6 1C8#40000000FFFF3FFF
(1707835159.256759) COM6 1E1#00000400011CC0
(1707835159.256759) COM6 1E5#44FFAD100000023C
(1707835159.256759) COM6 185#03FB
(1707835159.263870) COM6 1C6#0000000000C3FFFD
(1707835159.263870) COM6 1C7#06A0F95D00003E
(1707835159.263870) COM6 1CE#180007FD
(1707835159.263870) COM6 1E9#0000000600080000
(1707835159.263870) COM6 232#00000000000000
(1707835159.263870) COM6 1F3#407C00
(1707835159.263870) COM6 0F1#000000400000
(1707835159.266227) COM6 0C1#70089CDEB0011FE8
(1707835159.266227) COM6 0C5#3000000030000000
(1707835159.266227) COM6 0D1#C000FFF900F900
(1707835159.283715) COM6 1C8#80000000FFFE3FFE
(1707835159.283715) COM6 1E5#44FFAD300000025C
(1707835159.283715) COM6 451#000000000000
(1707835159.283715) COM6 0F1#1C0000400000
(1707835159.283715) COM6 0C1#40089CDE80011FE8
(1707835159.283715) COM6 0C5#0000000000000000
(1707835159.283715) COM6 0D1#00000000000000
(1707835159.283715) COM6 1C8#C0000000FFFD3FFD
(1707835159.283715) COM6 1E5#44FFAD500000027C
(1707835159.283715) COM6 185#03FC
(1707835159.283715) COM6 1C6#0000000000000000
(1707835159.283715) COM6 1C7#06A0396000003E
(1707835159.283715) COM6 1CE#00000000
(1707835159.283715) COM6 1E9#0000000600060000
(1707835159.283715) COM6 232#00000000000000
(1707835159.283715) COM6 0F1#280000400000
(1707835159.285642) COM6 0C1#50089CDE90011FE8
(1707835159.285642) COM6 0C5#1000000010000000
(1707835159.285642) COM6 0D1#40007FFF00FF00
(1707835159.293166) COM6 1C8#0000000000000000
(1707835159.293166) COM6 12A#0000605900000080
(1707835159.293166) COM6 1E5#44FFAD700000029C
(1707835159.293166) COM6 210#00000000
(1707835159.293166) COM6 214#000000000000
(1707835159.293166) COM6 2F9#03000000000100
(1707835159.293166) COM6 348#000000001B
(1707835159.293166) COM6 34A#000000001B
(1707835159.293166) COM6 362#00000000
(1707835159.293166) COM6 365#00000000
(1707835159.293166) COM6 370#000000000000
(1707835159.293166) COM6 135#04080D0002180000
(1707835159.293166) COM6 137#0000000030000000
(1707835159.293166) COM6 0F1#340000400000
(1707835159.295168) COM6 0C1#60089CDEA0011FE8
(1707835159.311167) COM6 0C5#2000000020000000
(1707835159.311167) COM6 0D1#8000BFFE00FE00
(1707835159.311167) COM6 1C8#40000000FFFF3FFF
(1707835159.311167) COM6 139#0000000000000000
(1707835159.311167) COM6 1E5#44FFAD100000023C
(1707835159.311167) COM6 185#03FB
(1707835159.311167) COM6 1C6#000000000043FFFF
(1707835159.311167) COM6 1C7#06A0795F00003E
(1707835159.311167) COM6 1CE#080007FF
(1707835159.311167) COM6 1E9#0000000600080000
(1707835159.311167) COM6 232#00000000000000
(1707835159.311167) COM6 160#803C96B503
(1707835159.311167) COM6 1E1#000004000210F0
(1707835159.311167) COM6 0F1#000000400000
(1707835159.311167) COM6 0C1#70089CDEB0011FE8
(1707835159.311167) COM6 0C5#3000000030000000
(1707835159.311167) COM6 0D1#C000FFFD00FD00
(1707835159.311167) COM6 1C8#80000000FFFE3FFE
(1707835159.311167) COM6 1E5#44FFAD300000025C
(1707835159.311167) COM6 1F1#AE0F173E18000072
(1707835159.311167) COM6 1F3#80BC00
(1707835159.311167) COM6 32A#0000000000000000
(1707835159.313265) COM6 0F1#1C0000400000
(1707835159.315267) COM6 0C1#40089CDE80011FE8
(1707835159.325174) COM6 0C5#0000000000000000
(1707835159.325174) COM6 0D1#00003FFC00FC00
(1707835159.325174) COM6 1C8#C0000000FFFD3FFD
(1707835159.325174) COM6 1E1#000004000314E0
(1707835159.325174) COM6 1E5#44FFAD500000027C
(1707835159.325174) COM6 185#03FB
(1707835159.325174) COM6 1C6#000000000083FFFE
(1707835159.325174) COM6 1C7#06A0B95E00003E
(1707835159.325174) COM6 1CE#100007FE
(1707835159.325174) COM6 1E9#0000000600080000
(1707835159.325174) COM6 232#00000000000000
(1707835159.325174) COM6 1F3#C0FC00
(1707835159.325174) COM6 3C9#0766000000000000
(1707835159.325174) COM6 0F1#280000400000
(1707835159.325174) COM6 0C1#50089CDE90011FE8
(1707835159.343998) COM6 0C5#1000000010000000
(1707835159.343998) COM6 0D1#40007FFB00FB00
(1707835159.343998) COM6 1C8#0000000000000000
(1707835159.343998) COM6 1E5#44FFAD700000029C
(1707835159.343998) COM6 3CB#2E82000001FB
(1707835159.343998) COM6 3E7#0068
(1707835159.343998) COM6 451#000000000000
(1707835159.343998) COM6 0F1#340000400000
(1707835159.343998) COM6 0C1#60089CDEA0011FE8
(1707835159.343998) COM6 0C5#2000000020000000
(1707835159.343998) COM6 0D1#8000BFFA00FA00
(1707835159.343998) COM6 1C8#40000000FFFF3FFF
(1707835159.343998) COM6 1E5#44FFAD100000023C
(1707835159.343998) COM6 185#03FB
(1707835159.343998) COM6 1C6#0000000000C3FFFD
(1707835159.343998) COM6 1C7#06A0F95D00003E
(1707835159.343998) COM6 1CE#180007FD
(1707835159.343998) COM6 1E9#0000000600060000
(1707835159.343998) COM6 232#00000000000000
(1707835159.343998) COM6 210#020001FF
(1707835159.343998) COM6 214#020001FF0403
(1707835159.343998) COM6 2F9#0B000000000007
(1707835159.343998) COM6 348#000000001B
(1707835159.343998) COM6 34A#000000001B
(1707835159.343998) COM6 362#00000000
(1707835159.343998) COM6 365#00000000
(1707835159.343998) COM6 370#000000000000
(1707835159.343998) COM6 17D#2A2443FF2000
(1707835159.343998) COM6 182#000000
(1707835159.343998) COM6 234#00000000
(1707835159.343998) COM6 2F1#0000000000
(1707835159.343998) COM6 3F1#00FFFA0A06FF0A68
(1707835159.343998) COM6 0F1#000000400000
(1707835159.358154) COM6 0C1#70089CDEB0011FE8
(1707835159.358154) COM6 0C5#3000000030000000
(1707835159.358154) COM6 0D1#C000FFF900F900
(1707835159.358154) COM6 1C8#80000000FFFE3FFE
(1707835159.358154) COM6 1E1#000004000018D0
(1707835159.358154) COM6 1E5#44FFAD300000025C
(1707835159.358154) COM6 1F3#003C00
(1707835159.358154) COM6 451#000000000000
(1707835159.358154) COM6 0F1#1C0000400000
(1707835159.358154) COM6 0C1#40089CDE80011FE8
(1707835159.358154) COM6 0C5#0000000000000000
(1707835159.358154) COM6 0D1#00000000000000
(1707835159.358154) COM6 1C8#C0000000FFFD3FFD
(1707835159.358154) COM6 1E5#44FFAD500000027C
(1707835159.358154) COM6 185#03FB
(1707835159.358154) COM6 1C6#0000000000000000
(1707835159.358154) COM6 1C7#06A0396000003E
(1707835159.358154) COM6 1CE#00000000
(1707835159.358154) COM6 1E9#0000000600060000
(1707835159.358154) COM6 232#00000000000000
(1707835159.364008) COM6 0F1#280000400000
(1707835159.365586) COM6 0C1#50089CDE90011FE8
(1707835159.365586) COM6 0C5#1000000010000000
(1707835159.365586) COM6 0D1#40007FFF00FF00
(1707835159.373736) COM6 1C8#0000000000000000
(1707835159.373736) COM6 1E5#44FFAD700000029C
(1707835159.373736) COM6 451#000000000000
(1707835159.373736) COM6 0F1#340000400000
(1707835159.375616) COM6 0C1#60089CDEA0011FE8
(1707835159.375616) COM6 0C5#2000000020000000
(1707835159.388880) COM6 0D1#8000BFFE00FE00
(1707835159.388880) COM6 1C8#40000000FFFF3FFF
(1707835159.388880) COM6 1E1#00000400011CC0
(1707835159.388880) COM6 1E5#44FFAD100000023C
(1707835159.388880) COM6 185#03FB
(1707835159.388880) COM6 1C6#000000000043FFFF
(1707835159.388880) COM6 1C7#06A0795F00003E
(1707835159.388880) COM6 1CE#080007FF
(1707835159.388880) COM6 1E9#0000000600060000
(1707835159.388880) COM6 232#00000000000000
(1707835159.388880) COM6 1F3#407C00
(1707835159.388880) COM6 0F1#000000400000
(1707835159.388880) COM6 0C1#70089CDEB0011FE8
(1707835159.388880) COM6 0C5#3000000030000000
(1707835159.388880) COM6 0D1#C000FFFD00FD00
(1707835159.388880) COM6 1C8#80000000FFFE3FFE
(1707835159.388880) COM6 12A#0000605900000080
(1707835159.388880) COM6 1E5#44FFAD300000025C
(1707835159.388880) COM6 210#040001FE
(1707835159.388880) COM6 214#040001FE0802
(1707835159.388880) COM6 2F9#1300000000000A
(1707835159.388880) COM6 348#000000001B
(1707835159.388880) COM6 34A#000000001B
(1707835159.388880) COM6 362#00000000
(1707835159.388880) COM6 365#00000000
(1707835159.388880) COM6 370#000000000000
(1707835159.403866) COM6 135#04080D0002180000
(1707835159.403866) COM6 137#0000000030000000
(1707835159.403866) COM6 0F1#1C0000400000
(1707835159.403866) COM6 0C1#40089CDE80011FE8
(1707835159.403866) COM6 0C5#0000000000000000
(1707835159.403866) COM6 0D1#00003FFC00FC00
(1707835159.403866) COM6 139#0000000000000000
(1707835159.403866) COM6 1C8#C0000000FFFD3FFD
(1707835159.403866) COM6 1E5#44FFAD500000027C
(1707835159.403866) COM6 185#03FB
(1707835159.403866) COM6 1C6#000000000083FFFE
(1707835159.403866) COM6 1C7#06A0B95E00003E
(1707835159.403866) COM6 1CE#100007FE
(1707835159.403866) COM6 1E9#0000000600080000
(1707835159.403866) COM6 232#00000000000000
(1707835159.403866) COM6 160#803C96B503
(1707835159.403866) COM6 1F1#AE0F173E18000072
(1707835159.403866) COM6 0F1#280000400000
(1707835159.405630) COM6 0C1#50089CDE90011FE8
(1707835159.420812) COM6 0C5#1000000010000000
(1707835159.420812) COM6 0D1#40007FFB00FB00
(1707835159.420812) COM6 1C8#0000000000000000
(1707835159.420812) COM6 1E1#000004000210F0
(1707835159.420812) COM6 1E5#44FFAD700000029C
(1707835159.420812) COM6 1F3#80BC00
(1707835159.420812) COM6 32A#0000000000000000
(1707835159.420812) COM6 0F1#340000400000
(1707835159.420812) COM6 0C1#60089CDEA0011FE8
(1707835159.420812) COM6 0C5#2000000020000000
(1707835159.420812) COM6 0D1#8000BFFA00FA00
(1707835159.420812) COM6 1C8#40000000FFFF3FFF
(1707835159.420812) COM6 1E5#44FFAD100000023C
(1707835159.420812) COM6 185#03FB
(1707835159.420812) COM6 1C6#0000000000C3FFFD
(1707835159.420812) COM6 1C7#06A0F95D00003E
(1707835159.420812) COM6 1CE#180007FD
(1707835159.420812) COM6 1E9#0000000600080000
(1707835159.420812) COM6 232#00000000000000
(1707835159.420812) COM6 3C9#0766000000000000
(1707835159.420812) COM6 3CB#2E82000001FB
(1707835159.420812) COM6 3E7#0068
(1707835159.423866) COM6 0F1#000000400000
(1707835159.436072) COM6 0C1#70089CDEB0011FE8
(1707835159.436072) COM6 0C5#3000000030000000
(1707835159.436072) COM6 0D1#C000FFF900F900
(1707835159.436072) COM6 1C8#80000000FFFE3FFE
(1707835159.436072) COM6 1E5#44FFAD300000025C
(1707835159.436072) COM6 451#000000000000
(1707835159.436072) COM6 0F1#1C0000400000
(1707835159.436072) COM6 0C1#40089CDE80011FE8
(1707835159.436072) COM6 0C5#0000000000000000
(1707835159.436072) COM6 0D1#00000000000000
(1707835159.453665) COM6 1C8#C0000000FFFD3FFD
(1707835159.453665) COM6 1E1#000004000314E0
(1707835159.453665) COM6 1E5#44FFAD500000027C
(1707835159.453665) COM6 185#03FC
(1707835159.453665) COM6 1C6#0000000000000000
(1707835159.453665) COM6 1C7#06A0396000003E
(1707835159.453665) COM6 1CE#00000000
(1707835159.453665) COM6 1E9#0000000600080000
(1707835159.453665) COM6 232#00000000000000
(1707835159.453665) COM6 210#060001FD
(1707835159.453665) COM6 214#060001FD0C01
(1707835159.453665) COM6 2F9#1B00000000000D
(1707835159.453665) COM6 348#000000001B
(1707835159.453665) COM6 1F3#C0FC00
(1707835159.453665) COM6 34A#000000001B
(1707835159.453665) COM6 362#00000000
(1707835159.453665) COM6 365#00000000
(1707835159.453665) COM6 370#000000000000
(1707835159.453665) COM6 17D#2A2443FF2000
(1707835159.453665) COM6 182#000000
(1707835159.453665) COM6 234#00000000
(1707835159.453665) COM6 2F1#0000000000
(1707835159.453665) COM6 451#000000000000
(1707835159.453665) COM6 0F1#280000400000
(1707835159.453665) COM6 0C1#50089CDE90011FE8
(1707835159.453665) COM6 0C5#1000000010000000
(1707835159.453665) COM6 0D1#40007FFF00FF00
(1707835159.453665) COM6 1C8#0000000000000000
(1707835159.453665) COM6 1E5#44FFAD700000029C
(1707835159.453665) COM6 0F1#340000400000
(1707835159.455107) COM6 0C1#60089CDEA0011FE8
(1707835159.465203) COM6 0C5#2000000020000000
(1707835159.465203) COM6 0D1#8000BFFE00FE00
(1707835159.465203) COM6 1C8#40000000FFFF3FFF
(1707835159.465203) COM6 1E5#44FFAD100000023C
(1707835159.465203) COM6 185#03FC
(1707835159.465203) COM6 1C6#000000000043FFFF
(1707835159.465203) COM6 1C7#06A0795F00003E
(1707835159.465203) COM6 1CE#080007FF
(1707835159.465203) COM6 1E9#0000000600080000
(1707835159.465203) COM6 232#00000000000000
(1707835159.465203) COM6 451#000000000000
(1707835159.465203) COM6 0F1#000000400000
(1707835159.465203) COM6 0C1#70089CDEB0011FE8
(1707835159.484355) COM6 0C5#3000000030000000
(1707835159.484355) COM6 0D1#C000FFFD00FD00
(1707835159.484355) COM6 1C8#80000000FFFE3FFE
(1707835159.484355) COM6 1E1#000004000018D0
(1707835159.484355) COM6 1E5#44FFAD300000025C
(1707835159.484355) COM6 1F3#003C00
(1707835159.484355) COM6 451#000000000000
(1707835159.484355) COM6 0F1#1C0000400000
(1707835159.484355) COM6 0C1#40089CDE80011FE8
(1707835159.484355) COM6 0C5#0000000000000000
(1707835159.484355) COM6 0D1#00003FFC00FC00
(1707835159.484355) COM6 1C8#C0000000FFFD3FFD
(1707835159.484355) COM6 1E5#44FFAD500000027C
(1707835159.484355) COM6 185#03FD
(1707835159.484355) COM6 1C6#000000000083FFFE
(1707835159.484355) COM6 1C7#06A0B95E00003E
(1707835159.484355) COM6 1CE#100007FE
(1707835159.484355) COM6 1E9#0000000600060000
(1707835159.484355) COM6 232#00000000000000
(1707835159.484355) COM6 0F1#280000400000
(1707835159.497293) COM6 0C1#50089CDE90011FE8
(1707835159.497293) COM6 0C5#1000000010000000
(1707835159.497293) COM6 0D1#40007FFB00FB00
(1707835159.497293) COM6 1C8#0000000000000000
(1707835159.497293) COM6 12A#0000605900000080
(1707835159.497293) COM6 1E5#44FFAD700000029C
(1707835159.497293) COM6 210#00000000
(1707835159.497293) COM6 214#000000000000
(1707835159.497293) COM6 2F9#23000000000000
(1707835159.497293) COM6 348#000000001B
(1707835159.497293) COM6 34A#000000001B
(1707835159.497293) COM6 362#00000000
(1707835159.497293) COM6 365#00000000
(1707835159.497293) COM6 370#000000000000
(1707835159.497293) COM6 135#04080D0002180000
(1707835159.497293) COM6 137#0000000030000000
(1707835159.497293) COM6 0F1#340000400000
(1707835159.497293) COM6 0C1#60089CDEA0011FE8
(1707835159.497293) COM6 0C5#2000000020000000
(1707835159.497293) COM6 0D1#8000BFFA00FA00
(1707835159.497293) COM6 1C8#40000000FFFF3FFF
(1707835159.497293) COM6 139#0000000000000000
(1707835159.497293) COM6 1E5#44FFAD100000023C
(1707835159.497293) COM6 185#03FC
(1707835159.497293) COM6 1C6#0000000000C3FFFD
(1707835159.497293) COM6 1C7#06A0F95D00003E
(1707835159.497293) COM6 1CE#180007FD
(1707835159.497293) COM6 1E9#0000000600060000
(1707835159.513870) COM6 232#00000000000000
(1707835159.513870) COM6 160#803C96B503
(1707835159.513870) COM6 1E1#00000400011CC0
(1707835159.513870) COM6 0F1#000000400000
(1707835159.513870) COM6 0C1#70089CDEB0011FE8
(1707835159.513870) COM6 0C5#3000000030000000
(1707835159.513870) COM6 0D1#C000FFF900F900
(1707835159.513870) COM6 1C8#80000000FFFE3FFE
(1707835159.513870) COM6 1E5#44FFAD300000025C
(1707835159.513870) COM6 1F1#AE0F173E18000072
(1707835159.513870) COM6 1F3#407C00
(1707835159.513870) COM6 32A#0000000000000000
(1707835159.513870) COM6 0F1#1C0000400000
(1707835159.531459) COM6 0C1#40089CDE80011FE8
(1707835159.531459) COM6 0C5#0000000000000000
(1707835159.531459) COM6 0D1#00000000000000
(1707835159.531459) COM6 1C8#C0000000FFFD3FFD
(1707835159.531459) COM6 1E5#44FFAD500000027C
(1707835159.531459) COM6 185#03FC
(1707835159.531459) COM6 1C6#0000000000000000
(1707835159.531459) COM6 1C7#06A0396000003E
(1707835159.531459) COM6 1CE#00000000
(1707835159.531459) COM6 1E9#0000000600080000
(1707835159.531459) COM6 232#00000000000000
(1707835159.531459) COM6 3C9#0766000000000000
(1707835159.531459) COM6 3CB#2E82000001FB
(1707835159.531459) COM6 3E7#0068
(1707835159.531459) COM6 0F1#280000400000
(1707835159.531459) COM6 0C1#50089CDE90011FE8
(1707835159.531459) COM6 0C5#1000000010000000
(1707835159.531459) COM6 0D1#40007FFF00FF00
(1707835159.531459) COM6 1C8#0000000000000000
(1707835159.531459) COM6 1E1#000004000210F0
(1707835159.531459) COM6 1E5#44FFAD700000029C
(1707835159.531459) COM6 1F3#80BC00
(1707835159.531459) COM6 451#000000000000
(1707835159.534565) COM6 0F1#340000400000
(1707835159.545657) COM6 0C1#60089CDEA0011FE8
(1707835159.545657) COM6 0C5#2000000020000000
(1707835159.545657) COM6 0D1#8000BFFE00FE00
(1707835159.545657) COM6 1C8#40000000FFFF3FFF
(1707835159.545657) COM6 1E5#44FFAD100000023C
(1707835159.545657) COM6 185#03FC
(1707835159.545657) COM6 1C6#000000000043FFFF
(1707835159.545657) COM6 1C7#06A0795F00003E
(1707835159.545657) COM6 1CE#080007FF
(1707835159.545657) COM6 1E9#0000000600080000
(1707835159.545657) COM6 232#00000000000000
(1707835159.545657) COM6 210#020001FF
(1707835159.545657) COM6 214#020001FF0403
(1707835159.545657) COM6 2F9#2B000000000007
(1707835159.545657) COM6 348#000000001B
(1707835159.545657) COM6 34A#000000001B
(1707835159.545657) COM6 362#00000000
(1707835159.545657) COM6 365#00000000
(1707835159.545657) COM6 370#000000000000
(1707835159.545657) COM6 17D#2A2443FF2000
(1707835159.545657) COM6 182#000000
(1707835159.545657) COM6 234#00000000
(1707835159.545657) COM6 2F1#0000000000
(1707835159.545657) COM6 0F1#000000400000
(1707835159.545657) COM6 0C1#70089CDEB0011FE8
(1707835159.563754) COM6 0C5#3000000030000000
(1707835159.563754) COM6 0D1#C000FFFD00FD00
(1707835159.563754) COM6 1C8#80000000FFFE3FFE
(1707835159.563754) COM6 1E5#44FFAD300000025C
(1707835159.563754) COM6 451#000000000000
(1707835159.563754) COM6 0F1#1C0000400000
(1707835159.563754) COM6 0C1#40089CDE80011FE8
(1707835159.563754) COM6 0C5#0000000000000000
(1707835159.563754) COM6 0D1#00003FFC00FC00
(1707835159.563754) COM6 1C8#C0000000FFFD3FFD
(1707835159.563754) COM6 1E1#000004000314E0
(1707835159.563754) COM6 1E5#44FFAD500000027C
(1707835159.563754) COM6 185#03FB
(1707835159.563754) COM6 1C6#000000000083FFFE
(1707835159.563754) COM6 1C7#06A0B95E00003E
(1707835159.563754) COM6 1CE#100007FE
(1707835159.563754) COM6 1E9#0000000600060000
(1707835159.563754) COM6 232#00000000000000
(1707835159.563754) COM6 1F3#C0FC00
(1707835159.563754) COM6 0F1#280000400000
(1707835159.573842) COM6 0C1#50089CDE90011FE8
(1707835159.573842) COM6 0C5#1000000010000000
(1707835159.573842) COM6 0D1#40007FFB00FB00
(1707835159.573842) COM6 1C8#0000000000000000
(1707835159.573842) COM6 1E5#44FFAD700000029C
(1707835159.573842) COM6 451#000000000000
(1707835159.573842) COM6 0F1#340000400000
(1707835159.575716) COM6 0C1#60089CDEA0011FE8
(1707835159.575716) COM6 0C5#2000000020000000
(1707835159.575716) COM6 0D1#8000BFFA00FA00
(1707835159.575716) COM6 1C8#40000000FFFF3FFF
(1707835159.575716) COM6 1E5#44FFAD100000023C
(1707835159.594577) COM6 185#03FB
(1707835159.594577) COM6 1C6#0000000000C3FFFD
(1707835159.594577) COM6 1C7#06A0F95D00003E
(1707835159.594577) COM6 1CE#180007FD
(1707835159.594577) COM6 1E9#0000000600060000
(1707835159.594577) COM6 232#00000000000000
(1707835159.594577) COM6 0F1#000000400000
(1707835159.594577) COM6 0C1#70089CDEB0011FE8
(1707835159.594577) COM6 0C5#3000000030000000
(1707835159.594577) COM6 0D1#C000FFF900F900
(1707835159.594577) COM6 1C8#80000000FFFE3FFE
(1707835159.594577) COM6 12A#0000605900000080
(1707835159.594577) COM6 1E5#44FFAD300000025C
(1707835159.594577) COM6 210#040001FE
(1707835159.594577) COM6 214#040001FE0802
(1707835159.594577) COM6 2F9#3300000000000A
(1707835159.594577) COM6 348#000000001B
(1707835159.594577) COM6 34A#000000001B
(1707835159.594577) COM6 362#00000000
(1707835159.594577) COM6 365#00000000
(1707835159.594577) COM6 370#000000000000
(1707835159.594577) COM6 135#04080D0002180000
(1707835159.594577) COM6 137#0000000030000000
(1707835159.594577) COM6 0F1#1C0000400000
(1707835159.608575) COM6 0C1#40089CDE80011FE8
(1707835159.608575) COM6 0C5#0000000000000000
(1707835159.608575) COM6 0D1#00000000000000
(1707835159.608575) COM6 139#0000000000000000
(1707835159.608575) COM6 1C8#C0000000FFFD3FFD
(1707835159.608575) COM6 1E5#44FFAD500000027C
(1707835159.608575) COM6 185#03FB
(1707835159.608575) COM6 1C6#0000000000000000
(1707835159.608575) COM6 1C7#06A0396000003E
(1707835159.608575) COM6 1CE#00000000
(1707835159.608575) COM6 1E9#0000000600080000
(1707835159.608575) COM6 232#00000000000000
(1707835159.608575) COM6 140#000202
(1707835159.608575) COM6 160#803C96B503
(1707835159.608575) COM6 0F1#280000400000
(1707835159.608575) COM6 0C1#50089CDE90011FE8
(1707835159.608575) COM6 0C5#1000000010000000
(1707835159.608575) COM6 0D1#40007FFF00FF00
(1707835159.608575) COM6 1C8#0000000000000000
(1707835159.608575) COM6 1E1#000004000018D0
(1707835159.608575) COM6 1E5#44FFAD700000029C
(1707835159.608575) COM6 1F1#AE0F173E18000072
(1707835159.610673) COM6 1F3#003C00
(1707835159.613676) COM6 0F1#340000400000
(1707835159.615608) COM6 0C1#60089CDEA0011FE8
(1707835159.625575) COM6 0C5#2000000020000000
(1707835159.625575) COM6 0D1#8000BFFE00FE00
(1707835159.625575) COM6 1C8#40000000FFFF3FFF
(1707835159.625575) COM6 1E1#00000400011CC0
(1707835159.625575) COM6 1E5#44FFAD100000023C
(1707835159.625575) COM6 185#03FB
(1707835159.625575) COM6 1C6#000000000043FFFF
(1707835159.625575) COM6 1C7#06A0795F00003E
(1707835159.625575) COM6 1CE#080007FF
(1707835159.625575) COM6 1E9#0000000600080000
(1707835159.625575) COM6 232#00000000000000
(1707835159.625575) COM6 32A#0000000000000000
(1707835159.625575) COM6 3C9#0766000000000000
(1707835159.625575) COM6 0F1#000000400000
(1707835159.625575) COM6 0C1#70089CDEB0011FE8
(1707835159.639522) COM6 0C5#3000000030000000
(1707835159.639522) COM6 0D1#C000FFFD00FD00
(1707835159.639522) COM6 1C8#80000000FFFE3FFE
(1707835159.639522) COM6 1E5#44FFAD300000025C
(1707835159.639522) COM6 1F3#407C00
(1707835159.639522) COM6 3CB#2E82000001FB
(1707835159.639522) COM6 3E7#0068
(1707835159.639522) COM6 0F1#1C0000400000
(1707835159.639522) COM6 0C1#40089CDE80011FE8
(1707835159.639522) COM6 0C5#0000000000000000
(1707835159.639522) COM6 0D1#00003FFC00FC00
(1707835159.639522) COM6 1C8#C0000000FFFD3FFD
(1707835159.639522) COM6 1E5#44FFAD500000027C
(1707835159.639522) COM6 185#03FB
(1707835159.639522) COM6 1C6#000000000083FFFE
(1707835159.639522) COM6 1C7#06A0B95E00003E
(1707835159.639522) COM6 1CE#100007FE
(1707835159.639522) COM6 1E9#0000000600080000
(1707835159.639522) COM6 232#00000000000000
(1707835159.639522) COM6 210#060001FD
(1707835159.639522) COM6 214#060001FD0C01
(1707835159.639522) COM6 2F9#3B00000000000D
(1707835159.639522) COM6 348#000000001B
(1707835159.639522) COM6 34A#000000001B
(1707835159.639522) COM6 362#00000000
(1707835159.639522) COM6 365#00000000
(1707835159.639522) COM6 370#000000000000
(1707835159.639522) COM6 17D#2A2443FF2000
(1707835159.639522) COM6 182#000000
(1707835159.639522) COM6 234#00000000
(1707835159.655901) COM6 2F1#0000000000
(1707835159.655901) COM6 3F1#00FFFA0A06FF0A68
(1707835159.655901) COM6 451#000000000000
(1707835159.655901) COM6 0F1#280000400000
(1707835159.655901) COM6 0C1#50089CDE90011FE8
(1707835159.655901) COM6 0C5#1000000010000000
(1707835159.655901) COM6 0D1#40007FFB00FB00
(1707835159.655901) COM6 1C8#0000000000000000
(1707835159.655901) COM6 1E1#000004000210F0
(1707835159.655901) COM6 1E5#44FFAD700000029C
(1707835159.655901) COM6 1F3#80BC00
(1707835159.655901) COM6 4C5#000000
(1707835159.655901) COM6 0F1#340000400000
(1707835159.655901) COM6 0C1#60089CDEA0011FE8
(1707835159.670680) COM6 0C5#2000000020000000
(1707835159.670680) COM6 0D1#8000BFFA00FA00
(1707835159.670680) COM6 1C8#40000000FFFF3FFF
(1707835159.670680) COM6 1E5#44FFAD100000023C
(1707835159.670680) COM6 185#03FB
(1707835159.670680) COM6 1C6#0000000000C3FFFD
(1707835159.670680) COM6 1C7#06A0F95D00003E
(1707835159.670680) COM6 1CE#180007FD
(1707835159.670680) COM6 1E9#0000000600080000
(1707835159.670680) COM6 232#00000000000000
(1707835159.670680) COM6 451#000000000000
(1707835159.670680) COM6 4D7#013A87DAA1
(1707835159.670680) COM6 4E1#4B34303238383139
(1707835159.670680) COM6 0F1#000000400000
(1707835159.670680) COM6 0C1#70089CDEB0011FE8
(1707835159.670680) COM6 0C5#3000000030000000
(1707835159.670680) COM6 0D1#C000FFF900F900
(1707835159.670680) COM6 1C8#80000000FFFE3FFE
(1707835159.670680) COM6 1E5#44FFAD300000025C
(1707835159.670680) COM6 451#000000000000
(1707835159.670680) COM6 4E9#E14001093E25
(1707835159.670680) COM6 514#3056305845503638
(1707835159.673681) COM6 0F1#1C0000400000
(1707835159.676123) COM6 0C1#40089CDE80011FE8
(1707835159.676123) COM6 0C5#0000000000000000
(1707835159.676123) COM6 0D1#00000000000000
(1707835159.687247) COM6 1C8#C0000000FFFD3FFD
(1707835159.687247) COM6 1E1#000004000314E0
(1707835159.687247) COM6 1E5#44FFAD500000027C
(1707835159.687247) COM6 185#03FB
(1707835159.687247) COM6 1C6#0000000000000000
(1707835159.687247) COM6 1C7#06A0396000003E
(1707835159.687247) COM6 1CE#00000000
(1707835159.687247) COM6 1E9#0000000600080000
(1707835159.687247) COM6 232#00000000000000
(1707835159.687247) COM6 1F3#C0FC00
(1707835159.687247) COM6 52A#242437363736
(1707835159.687247) COM6 0F1#280000400000
(1707835159.687247) COM6 0C1#50089CDE90011FE8
(1707835159.687247) COM6 0C5#1000000010000000
(1707835159.687247) COM6 0D1#40007FFF00FF00
(1707835159.687247) COM6 1C8#0000000000000000
(1707835159.687247) COM6 12A#0000605900000080
(1707835159.687247) COM6 1E5#44FFAD700000029C
(1707835159.687247) COM6 210#00000000
(1707835159.687247) COM6 214#000000000000
(1707835159.703849) COM6 2F9#43000000000000
(1707835159.703849) COM6 348#000000001B
(1707835159.703849) COM6 34A#000000001B
(1707835159.703849) COM6 362#00000000
(1707835159.703849) COM6 365#00000000
(1707835159.703849) COM6 370#000000000000
(1707835159.703849) COM6 135#04080D0002180000
(1707835159.703849) COM6 137#0000000030000000
(1707835159.703849) COM6 0F1#340000400000
(1707835159.703849) COM6 0C1#60089CDEA0011FE8
(1707835159.703849) COM6 0C5#2000000020000000
(1707835159.703849) COM6 0D1#8000BFFE00FE00
(1707835159.703849) COM6 1C8#40000000FFFF3FFF
(1707835159.703849) COM6 139#0000000000000000
(1707835159.703849) COM6 1E5#44FFAD100000023C
(1707835159.703849) COM6 185#03FC
(1707835159.703849) COM6 1C6#000000000043FFFF
(1707835159.703849) COM6 1C7#06A0795F00003E
(1707835159.703849) COM6 1CE#080007FF
(1707835159.703849) COM6 1E9#0000000600080000
(1707835159.703849) COM6 232#00000000000000
(1707835159.703849) COM6 160#803C96B503
(1707835159.703849) COM6 1F1#AE0F173E18000072
(1707835159.703849) COM6 0F1#000000400000
(1707835159.706805) COM6 0C1#70089CDEB0011FE8
(1707835159.706805) COM6 0C5#3000000030000000
(1707835159.706805) COM6 0D1#C000FFFD00FD00
(1707835159.706805) COM6 1C8#80000000FFFE3FFE
(1707835159.706805) COM6 1E1#000004000018D0
(1707835159.718026) COM6 1E5#44FFAD300000025C
(1707835159.718026) COM6 1F3#003C00
(1707835159.718026) COM6 32A#0000000000000000
(1707835159.718026) COM6 0F1#1C0000400000
(1707835159.718026) COM6 0C1#40089CDE80011FE8
(1707835159.718026) COM6 0C5#0000000000000000
(1707835159.718026) COM6 0D1#00003FFC00FC00
(1707835159.718026) COM6 1C8#C0000000FFFD3FFD
(1707835159.718026) COM6 1E5#44FFAD500000027C
(1707835159.718026) COM6 185#03FC
(1707835159.718026) COM6 1C6#000000000083FFFE
(1707835159.718026) COM6 1C7#06A0B95E00003E
(1707835159.718026) COM6 1CE#100007FE
(1707835159.718026) COM6 1E9#0000000600080000
(1707835159.718026) COM6 232#00000000000000
(1707835159.718026) COM6 3C9#0766000000000000
(1707835159.718026) COM6 3CB#2E82000001FB
(1707835159.721262) COM6 3E7#0068
(1707835159.723884) COM6 0F1#280000400000
(1707835159.735825) COM6 0C1#50089CDE90011FE8
(1707835159.735825) COM6 0C5#1000000010000000
(1707835159.735825) COM6 0D1#40007FFB00FB00
(1707835159.735825) COM6 1C8#0000000000000000
(1707835159.735825) COM6 1E5#44FFAD700000029C
(1707835159.735825) COM6 451#000000000000
(1707835159.735825) COM6 530#00000000
(1707835159.735825) COM6 0F1#340000400000
(1707835159.735825) COM6 0C1#60089CDEA0011FE8
(1707835159.752975) COM6 0C5#2000000020000000
(1707835159.752975) COM6 0D1#8000BFFA00FA00
(1707835159.752975) COM6 1C8#40000000FFFF3FFF
(1707835159.752975) COM6 1E1#00000400011CC0
(1707835159.752975) COM6 1E5#44FFAD100000023C
(1707835159.752975) COM6 185#03FC
(1707835159.752975) COM6 1C6#0000000000C3FFFD
(1707835159.752975) COM6 1C7#06A0F95D00003E
(1707835159.752975) COM6 1CE#180007FD
(1707835159.752975) COM6 1E9#0000000600080000
(1707835159.752975) COM6 232#00000000000000
(1707835159.752975) COM6 210#020001FF
(1707835159.752975) COM6 214#020001FF0403
(1707835159.752975) COM6 2F9#4B000000000007
(1707835159.752975) COM6 348#000000001B
(1707835159.752975) COM6 1F3#407C00
(1707835159.752975) COM6 34A#000000001B
(1707835159.752975) COM6 362#00000000
(1707835159.752975) COM6 365#00000000
(1707835159.752975) COM6 370#000000000000
(1707835159.752975) COM6 17D#2A2443FF2000
(1707835159.752975) COM6 182#000000
(1707835159.752975) COM6 234#00000000
(1707835159.752975) COM6 2F1#0000000000
(1707835159.752975) COM6 500#303003B9
(1707835159.752975) COM6 773#00280000000000
(1707835159.752975) COM6 780#00310000000000
(1707835159.752975) COM6 451#000000000000
(1707835159.752975) COM6 0F1#000000400000
(1707835159.752975) COM6 0C1#70089CDEB0011FE8
(1707835159.752975) COM6 0C5#3000000030000000
(1707835159.752975) COM6 0D1#C000FFF900F900
(1707835159.752975) COM6 1C8#80000000FFFE3FFE
(1707835159.752975) COM6 1E5#44FFAD300000025C
(1707835159.752975) COM6 0F1#1C0000400000
(1707835159.754972) COM6 0C1#40089CDE80011FE8
(1707835159.765971) COM6 0C5#0000000000000000
(1707835159.765971) COM6 0D1#00000000000000
(1707835159.765971) COM6 1C8#C0000000FFFD3FFD
(1707835159.765971) COM6 1E5#44FFAD500000027C
(1707835159.765971) COM6 185#03FC
(1707835159.765971) COM6 1C6#0000000000000000
(1707835159.765971) COM6 1C7#06A0396000003E
(1707835159.765971) COM6 1CE#00000000
(1707835159.765971) COM6 1E9#0000000600080000
(1707835159.765971) COM6 232#00000000000000
